
SetupTitle, NMOS1 ID VGS
PrimitiveTest, I/V Sweep
TestParameter, Context.MainFrame, B1500A
TestParameter, Channel.UnitType, SMU, SMU, SMU, SMU, SMU
TestParameter, Channel.Unit, SMU1:MP, SMU2:MP, SMU3:MP, SMU4:MP, GNDU:GND
TestParameter, Channel.IName, IG, IS, ID, IDD, IEE
TestParameter, Channel.VName, VG, VS, VD, VDD, VEE
TestParameter, Channel.Mode, V, V, V, V, COMMON
TestParameter, Channel.Func, VAR1, CONST, VAR2, CONST, CONST
TestParameter, Channel.Index, 
TestParameter, Channel.Time, 
TestParameter, Measurement.Port.Unit, SMU1:MP, SMU2:MP, SMU3:MP, SMU4:MP, GNDU:GND
TestParameter, Measurement.Port.SeriesResistor, NONE, NONE, NONE, NONE, NONE
TestParameter, Measurement.Port.Filter, ON, ON, ON, ON, ON
TestParameter, Measurement.Primary.Locus, Single
TestParameter, Measurement.Primary.Scale, LINEAR
TestParameter, Measurement.Primary.Start, 0
TestParameter, Measurement.Primary.Stop, 0.60000000000000009
TestParameter, Measurement.Primary.Step, 0.01
TestParameter, Measurement.Primary.Compliance, 1E-05
TestParameter, Measurement.Primary.PowerCompliance, 0
TestParameter, Measurement.Aborting.Condition, CONTINUE AT ANY
TestParameter, Measurement.PostOutput.Value, START
TestParameter, Measurement.PostOutput.Retention, OFF
TestParameter, Measurement.Secondary.Start, 0.5
TestParameter, Measurement.Secondary.Count, 4
TestParameter, Measurement.Secondary.Step, 0.5
TestParameter, Measurement.Secondary.Compliance, 0.030000000000000002
TestParameter, Measurement.Secondary.PowerCompliance, 0
TestParameter, Measurement.Bias.Source, 0, 0, 0.5, 2.5, 0
TestParameter, Measurement.Bias.Compliance, 1E-05, 0.035, 0.030000000000000002, 0.1, 1
TestParameter, Measurement.Monitor.Unit, SMU1:MP, SMU2:MP, SMU3:MP, SMU4:MP, GNDU:GND
TestParameter, Measurement.Monitor.Adc, HR ADC, HR ADC, HR ADC, HR ADC, HR ADC
TestParameter, Measurement.Monitor.RangingMode, LIMITED, LIMITED, LIMITED, LIMITED, LIMITED
TestParameter, Measurement.Monitor.RangeBoundary, 1nA, 1nA, 1nA, 1nA, 1nA
TestParameter, Measurement.Monitor.RangeRating, BY FULL RANGE, BY FULL RANGE, BY FULL RANGE, BY FULL RANGE, BY FULL RANGE
TestParameter, Measurement.Monitor.RangeRatingCoeff, 50, 50, 50, 50, 50
TestParameter, Measurement.Timing.Hold, 0
TestParameter, Measurement.Timing.Delay, 0
TestParameter, Measurement.Adc.HighSpeed.Mode, AUTO
TestParameter, Measurement.Adc.HighSpeed.Coeff, 1
TestParameter, Measurement.Adc.HighResolution.AutoZero, OFF
TestParameter, Measurement.Adc.HighResolution.Mode, AUTO
TestParameter, Measurement.Adc.HighResolution.Coeff, 127
TestParameter, Measurement.WaitTime.Source.Coeff, 1
TestParameter, Measurement.WaitTime.Source.Offset, 0
TestParameter, Measurement.WaitTime.Monitor.Coeff, 1
TestParameter, Measurement.WaitTime.Monitor.Offset, 0
TestParameter, Output.Graph.Enabled, true
TestParameter, Output.Graph.XAxis.Data, VG
TestParameter, Output.Graph.XAxis.Scale, Linear
TestParameter, Output.Graph.XAxis.Left, 0
TestParameter, Output.Graph.XAxis.Right, 0.60000000000000009
TestParameter, Output.Graph.YAxis.Data, ID
TestParameter, Output.Graph.YAxis.Scale, Log
TestParameter, Output.Graph.YAxis.Bottom, 1E-08
TestParameter, Output.Graph.YAxis.Top, 0.1
TestParameter, Output.Graph.YAxis.Group, 
TestParameter, AutoAnalysis.Interpolation, false
TestParameter, AutoAnalysis.Line1.Enabled, false
TestParameter, AutoAnalysis.Line1.Type, 1
TestParameter, AutoAnalysis.Line1.Fix, True
TestParameter, AutoAnalysis.Line1.YAxis, 0
TestParameter, AutoAnalysis.Line1.Point1.Type, 0
TestParameter, AutoAnalysis.Line1.Point1.XY.X, 
TestParameter, AutoAnalysis.Line1.Point1.XY.Y, 
TestParameter, AutoAnalysis.Line1.Point1.Data.Var, 
TestParameter, AutoAnalysis.Line1.Point1.Data.Condition, 
TestParameter, AutoAnalysis.Line1.Point1.Data.Start, false
TestParameter, AutoAnalysis.Line1.Point1.Data.StartVar, 
TestParameter, AutoAnalysis.Line1.Point1.Data.StartCondition, 
TestParameter, AutoAnalysis.Line1.Point2.Type, 0
TestParameter, AutoAnalysis.Line1.Point2.XY.X, 
TestParameter, AutoAnalysis.Line1.Point2.XY.Y, 
TestParameter, AutoAnalysis.Line1.Point2.Data.Var, 
TestParameter, AutoAnalysis.Line1.Point2.Data.Condition, 
TestParameter, AutoAnalysis.Line1.Point2.Data.Start, false
TestParameter, AutoAnalysis.Line1.Point2.Data.StartVar, 
TestParameter, AutoAnalysis.Line1.Point2.Data.StartCondition, 
TestParameter, AutoAnalysis.Line1.GradientExpr, 0
TestParameter, AutoAnalysis.Line2.Enabled, false
TestParameter, AutoAnalysis.Line2.Type, 1
TestParameter, AutoAnalysis.Line2.Fix, True
TestParameter, AutoAnalysis.Line2.YAxis, 0
TestParameter, AutoAnalysis.Line2.Point1.Type, 0
TestParameter, AutoAnalysis.Line2.Point1.XY.X, 
TestParameter, AutoAnalysis.Line2.Point1.XY.Y, 
TestParameter, AutoAnalysis.Line2.Point1.Data.Var, 
TestParameter, AutoAnalysis.Line2.Point1.Data.Condition, 
TestParameter, AutoAnalysis.Line2.Point1.Data.Start, false
TestParameter, AutoAnalysis.Line2.Point1.Data.StartVar, 
TestParameter, AutoAnalysis.Line2.Point1.Data.StartCondition, 
TestParameter, AutoAnalysis.Line2.Point2.Type, 0
TestParameter, AutoAnalysis.Line2.Point2.XY.X, 
TestParameter, AutoAnalysis.Line2.Point2.XY.Y, 
TestParameter, AutoAnalysis.Line2.Point2.Data.Var, 
TestParameter, AutoAnalysis.Line2.Point2.Data.Condition, 
TestParameter, AutoAnalysis.Line2.Point2.Data.Start, false
TestParameter, AutoAnalysis.Line2.Point2.Data.StartVar, 
TestParameter, AutoAnalysis.Line2.Point2.Data.StartCondition, 
TestParameter, AutoAnalysis.Line2.GradientExpr, 0
TestParameter, AutoAnalysis.Marker.Enabled, false
TestParameter, AutoAnalysis.Marker.Data.Var, 
TestParameter, AutoAnalysis.Marker.Data.Condition, 
TestParameter, AutoAnalysis.Marker.Data.Start, false
TestParameter, AutoAnalysis.Marker.Data.StartVar, 
TestParameter, AutoAnalysis.Marker.Data.StartCondition, 
MetaData, TestRecord.EntryPoint, true
MetaData, TestRecord.RecordTime, 11/01/2023 09:27:31
MetaData, TestRecord.TestTarget, step1_4
MetaData, TestRecord.IterationIndex, 1
MetaData, TestRecord.Preservation, true
MetaData, TestRecord.Flag, 
MetaData, TestRecord.Remarks, 
MetaData, TestRecord.LinkKey, 1c04344f-c435-4006-a6a0-3d5c01778a39
Dimension1, 61, 61
Dimension2, 4, 4
DataName, VG, ID
DataValue, 0, 5.1763899999999994E-08
DataValue, 0.01, 6.96066E-08
DataValue, 0.02, 9.3611E-08
DataValue, 0.03, 1.26176E-07
DataValue, 0.04, 1.69612E-07
DataValue, 0.05, 2.28111E-07
DataValue, 0.06, 3.06634E-07
DataValue, 0.07, 4.12023E-07
DataValue, 0.08, 5.53507E-07
DataValue, 0.09, 7.43719E-07
DataValue, 0.1, 9.97898E-07
DataValue, 0.11000000000000001, 1.34091E-06
DataValue, 0.12, 1.79777E-06
DataValue, 0.13, 2.40998E-06
DataValue, 0.13999999999999999, 3.22696E-06
DataValue, 0.15000000000000002, 4.32734E-06
DataValue, 0.16000000000000003, 5.7805999999999993E-06
DataValue, 0.17, 7.71534E-06
DataValue, 0.18000000000000002, 1.0278240000000002E-05
DataValue, 0.19, 1.36721E-05
DataValue, 0.2, 1.81483E-05
DataValue, 0.21000000000000002, 2.40291E-05
DataValue, 0.22000000000000003, 3.1721400000000004E-05
DataValue, 0.22999999999999998, 4.17517E-05
DataValue, 0.24, 5.47645E-05
DataValue, 0.25, 7.154000000000001E-05
DataValue, 0.26, 9.30243E-05
DataValue, 0.27, 0.00012047900000000001
DataValue, 0.27999999999999997, 0.000155385
DataValue, 0.29, 0.000198908
DataValue, 0.30000000000000004, 0.000253013
DataValue, 0.31000000000000005, 0.000319783
DataValue, 0.32000000000000006, 0.00040132899999999997
DataValue, 0.33, 0.000500019
DataValue, 0.34, 0.000619459
DataValue, 0.35000000000000003, 0.00076068400000000008
DataValue, 0.36000000000000004, 0.00092704100000000008
DataValue, 0.37000000000000005, 0.001121022
DataValue, 0.38, 0.0013468800000000002
DataValue, 0.39, 0.00160421
DataValue, 0.4, 0.0018970600000000001
DataValue, 0.41, 0.00222652
DataValue, 0.42000000000000004, 0.0025979700000000002
DataValue, 0.43, 0.0030056600000000003
DataValue, 0.44000000000000006, 0.00345567
DataValue, 0.45, 0.00394607
DataValue, 0.45999999999999996, 0.0044843700000000005
DataValue, 0.47000000000000003, 0.00506006
DataValue, 0.48, 0.00567842
DataValue, 0.49000000000000005, 0.0063387
DataValue, 0.5, 0.00704127
DataValue, 0.51, 0.0077894800000000005
DataValue, 0.52, 0.00857254
DataValue, 0.53, 0.00939407
DataValue, 0.54, 0.010254270000000001
DataValue, 0.55, 0.011156349999999999
DataValue, 0.55999999999999994, 0.0120984
DataValue, 0.57000000000000006, 0.013063700000000001
DataValue, 0.58, 0.0140619
DataValue, 0.59000000000000008, 0.0150996
DataValue, 0.60000000000000009, 0.016159
DataValue, 0, 8.16687E-08
DataValue, 0.01, 1.1020499999999999E-07
DataValue, 0.02, 1.4865999999999998E-07
DataValue, 0.03, 2.00835E-07
DataValue, 0.04, 2.7064E-07
DataValue, 0.05, 3.6473799999999997E-07
DataValue, 0.06, 4.9181299999999993E-07
DataValue, 0.07, 6.62323E-07
DataValue, 0.08, 8.9139E-07
DataValue, 0.09, 1.2008099999999999E-06
DataValue, 0.1, 1.6147E-06
DataValue, 0.11000000000000001, 2.1703E-06
DataValue, 0.12, 2.91289E-06
DataValue, 0.13, 3.90972E-06
DataValue, 0.13999999999999999, 5.2410699999999993E-06
DataValue, 0.15000000000000002, 7.0329300000000004E-06
DataValue, 0.16000000000000003, 9.395459999999999E-06
DataValue, 0.17, 1.2537700000000002E-05
DataValue, 0.18000000000000002, 1.66883E-05
DataValue, 0.19, 2.21645E-05
DataValue, 0.2, 2.93416E-05
DataValue, 0.21000000000000002, 3.8748700000000004E-05
DataValue, 0.22000000000000003, 5.0989800000000004E-05
DataValue, 0.22999999999999998, 6.68057E-05
DataValue, 0.24, 8.7144999999999993E-05
DataValue, 0.25, 0.0001132005
DataValue, 0.26, 0.000146267
DataValue, 0.27, 0.000187855
DataValue, 0.27999999999999997, 0.00024024700000000002
DataValue, 0.29, 0.000304699
DataValue, 0.30000000000000004, 0.000383864
DataValue, 0.31000000000000005, 0.00048015100000000006
DataValue, 0.32000000000000006, 0.00059616600000000008
DataValue, 0.33, 0.00073488300000000009
DataValue, 0.34, 0.00089973100000000008
DataValue, 0.35000000000000003, 0.001091678
DataValue, 0.36000000000000004, 0.00131405
DataValue, 0.37000000000000005, 0.00157002
DataValue, 0.38, 0.00186473
DataValue, 0.39, 0.00219569
DataValue, 0.4, 0.0025665700000000002
DataValue, 0.41, 0.00297857
DataValue, 0.42000000000000004, 0.003437
DataValue, 0.43, 0.0039360900000000006
DataValue, 0.44000000000000006, 0.0044793
DataValue, 0.45, 0.00506725
DataValue, 0.45999999999999996, 0.0057043499999999995
DataValue, 0.47000000000000003, 0.00638222
DataValue, 0.48, 0.0071041800000000007
DataValue, 0.49000000000000005, 0.00786903
DataValue, 0.5, 0.00867629
DataValue, 0.51, 0.00953266
DataValue, 0.52, 0.010422
DataValue, 0.53, 0.01135308
DataValue, 0.54, 0.0123311
DataValue, 0.55, 0.0133452
DataValue, 0.55999999999999994, 0.014383900000000002
DataValue, 0.57000000000000006, 0.015460799999999999
DataValue, 0.58, 0.0165715
DataValue, 0.59000000000000008, 0.017721800000000003
DataValue, 0.60000000000000009, 0.0188936
DataValue, 0, 1.23299E-07
DataValue, 0.01, 1.6647199999999998E-07
DataValue, 0.02, 2.2484099999999997E-07
DataValue, 0.03, 3.0439E-07
DataValue, 0.04, 4.1104999999999997E-07
DataValue, 0.05, 5.54443E-07
DataValue, 0.06, 7.47787E-07
DataValue, 0.07, 1.00845E-06
DataValue, 0.08, 1.36037E-06
DataValue, 0.09, 1.8319499999999999E-06
DataValue, 0.1, 2.46421E-06
DataValue, 0.11000000000000001, 3.31252E-06
DataValue, 0.12, 4.44864E-06
DataValue, 0.13, 5.96659E-06
DataValue, 0.13999999999999999, 7.99369E-06
DataValue, 0.15000000000000002, 1.071543E-05
DataValue, 0.16000000000000003, 1.4291400000000002E-05
DataValue, 0.17, 1.9028E-05
DataValue, 0.18000000000000002, 2.5265000000000003E-05
DataValue, 0.19, 3.34606E-05
DataValue, 0.2, 4.4156600000000003E-05
DataValue, 0.21000000000000002, 5.8057300000000004E-05
DataValue, 0.22000000000000003, 7.59694E-05
DataValue, 0.22999999999999998, 9.90325E-05
DataValue, 0.24, 0.000128474
DataValue, 0.25, 0.00016567
DataValue, 0.26, 0.000212382
DataValue, 0.27, 0.000270466
DataValue, 0.27999999999999997, 0.00034273
DataValue, 0.29, 0.00043074199999999996
DataValue, 0.30000000000000004, 0.000537269
DataValue, 0.31000000000000005, 0.000665386
DataValue, 0.32000000000000006, 0.000817502
DataValue, 0.33, 0.000996627
DataValue, 0.34, 0.00120718
DataValue, 0.35000000000000003, 0.00144907
DataValue, 0.36000000000000004, 0.00172642
DataValue, 0.37000000000000005, 0.0020412900000000003
DataValue, 0.38, 0.0023987699999999997
DataValue, 0.39, 0.002796
DataValue, 0.4, 0.00323637
DataValue, 0.41, 0.00372066
DataValue, 0.42000000000000004, 0.0042540300000000007
DataValue, 0.43, 0.00482918
DataValue, 0.44000000000000006, 0.00545026
DataValue, 0.45, 0.00611689
DataValue, 0.45999999999999996, 0.0068347300000000007
DataValue, 0.47000000000000003, 0.00759163
DataValue, 0.48, 0.00839243
DataValue, 0.49000000000000005, 0.00923752
DataValue, 0.5, 0.010124230000000001
DataValue, 0.51, 0.01105975
DataValue, 0.52, 0.012037800000000001
DataValue, 0.53, 0.0130456
DataValue, 0.54, 0.0140915
DataValue, 0.55, 0.0151806
DataValue, 0.55999999999999994, 0.0162962
DataValue, 0.57000000000000006, 0.017446
DataValue, 0.58, 0.0186267
DataValue, 0.59000000000000008, 0.019848
DataValue, 0.60000000000000009, 0.0210917
DataValue, 0, 1.8172E-07
DataValue, 0.01, 2.45858E-07
DataValue, 0.02, 3.32298E-07
DataValue, 0.03, 4.50149E-07
DataValue, 0.04, 6.08133E-07
DataValue, 0.05, 8.21592E-07
DataValue, 0.06, 1.108591E-06
DataValue, 0.07, 1.4971399999999999E-06
DataValue, 0.08, 2.0176599999999995E-06
DataValue, 0.09, 2.71625E-06
DataValue, 0.1, 3.65519E-06
DataValue, 0.11000000000000001, 4.9114699999999991E-06
DataValue, 0.12, 6.59081E-06
DataValue, 0.13, 8.83097E-06
DataValue, 0.13999999999999999, 1.1809700000000002E-05
DataValue, 0.15000000000000002, 1.5798800000000002E-05
DataValue, 0.16000000000000003, 2.10275E-05
DataValue, 0.17, 2.7921200000000003E-05
DataValue, 0.18000000000000002, 3.6944900000000006E-05
DataValue, 0.19, 4.87193E-05
DataValue, 0.2, 6.40053E-05
DataValue, 0.21000000000000002, 8.3719E-05
DataValue, 0.22000000000000003, 0.00010895250000000002
DataValue, 0.22999999999999998, 0.00014116
DataValue, 0.24, 0.00018160800000000001
DataValue, 0.25, 0.000232389
DataValue, 0.26, 0.00029544
DataValue, 0.27, 0.000372963
DataValue, 0.27999999999999997, 0.00046851300000000005
DataValue, 0.29, 0.000583041
DataValue, 0.30000000000000004, 0.00072025600000000006
DataValue, 0.31000000000000005, 0.00088292699999999993
DataValue, 0.32000000000000006, 0.001074041
DataValue, 0.33, 0.0012959
DataValue, 0.34, 0.0015543400000000002
DataValue, 0.35000000000000003, 0.00184734
DataValue, 0.36000000000000004, 0.00217978
DataValue, 0.37000000000000005, 0.00255258
DataValue, 0.38, 0.00297214
DataValue, 0.39, 0.0034327800000000003
DataValue, 0.4, 0.00393848
DataValue, 0.41, 0.0044906699999999996
DataValue, 0.42000000000000004, 0.00509401
DataValue, 0.43, 0.00573989
DataValue, 0.44000000000000006, 0.00643143
DataValue, 0.45, 0.00716927
DataValue, 0.45999999999999996, 0.00795769
DataValue, 0.47000000000000003, 0.00878513
DataValue, 0.48, 0.00965654
DataValue, 0.49000000000000005, 0.010571120000000002
DataValue, 0.5, 0.011539500000000001
DataValue, 0.51, 0.012540599999999999
DataValue, 0.52, 0.013577800000000001
DataValue, 0.53, 0.014649700000000002
DataValue, 0.54, 0.0157585
DataValue, 0.55, 0.0169113
DataValue, 0.55999999999999994, 0.018088299999999998
DataValue, 0.57000000000000006, 0.019299200000000002
DataValue, 0.58, 0.020537200000000002
DataValue, 0.59000000000000008, 0.021817600000000003
DataValue, 0.60000000000000009, 0.0231167