
SetupTitle, C IV leak
PrimitiveTest, I/V Sweep
TestParameter, Context.MainFrame, B1500A
TestParameter, Channel.UnitType, SMU, SMU, SMU
TestParameter, Channel.Unit, SMU1:MP, SMU2:MP, GNDU:GND
TestParameter, Channel.IName, Ica, Icb, IEE
TestParameter, Channel.VName, Vca, Vcb, VEE
TestParameter, Channel.Mode, V, COMMON, COMMON
TestParameter, Channel.Func, VAR1, CONST, CONST
TestParameter, Channel.Index, 
TestParameter, Channel.Time, 
TestParameter, Measurement.Port.Unit, SMU1:MP, SMU2:MP, GNDU:GND
TestParameter, Measurement.Port.SeriesResistor, NONE, NONE, NONE
TestParameter, Measurement.Port.Filter, ON, ON, ON
TestParameter, Measurement.Primary.Locus, Single
TestParameter, Measurement.Primary.Scale, LINEAR
TestParameter, Measurement.Primary.Start, 0
TestParameter, Measurement.Primary.Stop, 2
TestParameter, Measurement.Primary.Step, 0.05
TestParameter, Measurement.Primary.Compliance, 0.003
TestParameter, Measurement.Primary.PowerCompliance, 0
TestParameter, Measurement.Aborting.Condition, CONTINUE AT ANY
TestParameter, Measurement.PostOutput.Value, START
TestParameter, Measurement.PostOutput.Retention, OFF
TestParameter, Measurement.Bias.Source, 0, 0, 0
TestParameter, Measurement.Bias.Compliance, 0.003, 0.1, 1
TestParameter, Measurement.Monitor.Unit, SMU1:MP, SMU2:MP, GNDU:GND
TestParameter, Measurement.Monitor.Adc, HR ADC, HR ADC, HR ADC
TestParameter, Measurement.Monitor.RangingMode, LIMITED, LIMITED, LIMITED
TestParameter, Measurement.Monitor.RangeBoundary, 1nA, 1nA, 1nA
TestParameter, Measurement.Monitor.RangeRating, BY FULL RANGE, BY FULL RANGE, BY FULL RANGE
TestParameter, Measurement.Monitor.RangeRatingCoeff, 50, 50, 50
TestParameter, Measurement.Timing.Hold, 0.01
TestParameter, Measurement.Timing.Delay, 0.001
TestParameter, Measurement.Adc.HighSpeed.Mode, AUTO
TestParameter, Measurement.Adc.HighSpeed.Coeff, 1
TestParameter, Measurement.Adc.HighResolution.AutoZero, OFF
TestParameter, Measurement.Adc.HighResolution.Mode, PLC
TestParameter, Measurement.Adc.HighResolution.Coeff, 10
TestParameter, Measurement.WaitTime.Source.Coeff, 1
TestParameter, Measurement.WaitTime.Source.Offset, 0
TestParameter, Measurement.WaitTime.Monitor.Coeff, 1
TestParameter, Measurement.WaitTime.Monitor.Offset, 0
TestParameter, Function.User.Name, R
TestParameter, Function.User.Unit, ohm
TestParameter, Function.User.Definition, Vca/Ica
TestParameter, Output.Graph.Enabled, true
TestParameter, Output.Graph.XAxis.Data, Vca
TestParameter, Output.Graph.XAxis.Scale, Linear
TestParameter, Output.Graph.XAxis.Left, 0
TestParameter, Output.Graph.XAxis.Right, 2
TestParameter, Output.Graph.YAxis.Data, Ica
TestParameter, Output.Graph.YAxis.Scale, Linear
TestParameter, Output.Graph.YAxis.Bottom, 0
TestParameter, Output.Graph.YAxis.Top, 1E-11
TestParameter, Output.Graph.YAxis.Group, 
TestParameter, AutoAnalysis.Interpolation, false
TestParameter, AutoAnalysis.Line1.Enabled, false
TestParameter, AutoAnalysis.Line1.Type, 2
TestParameter, AutoAnalysis.Line1.Fix, False
TestParameter, AutoAnalysis.Line1.YAxis, 0
TestParameter, AutoAnalysis.Line1.Point1.Type, 0
TestParameter, AutoAnalysis.Line1.Point1.XY.X, 
TestParameter, AutoAnalysis.Line1.Point1.XY.Y, 
TestParameter, AutoAnalysis.Line1.Point1.Data.Var, 
TestParameter, AutoAnalysis.Line1.Point1.Data.Condition, 
TestParameter, AutoAnalysis.Line1.Point1.Data.Start, false
TestParameter, AutoAnalysis.Line1.Point1.Data.StartVar, 
TestParameter, AutoAnalysis.Line1.Point1.Data.StartCondition, 
TestParameter, AutoAnalysis.Line1.Point2.Type, 0
TestParameter, AutoAnalysis.Line1.Point2.XY.X, 
TestParameter, AutoAnalysis.Line1.Point2.XY.Y, 
TestParameter, AutoAnalysis.Line1.Point2.Data.Var, 
TestParameter, AutoAnalysis.Line1.Point2.Data.Condition, 
TestParameter, AutoAnalysis.Line1.Point2.Data.Start, false
TestParameter, AutoAnalysis.Line1.Point2.Data.StartVar, 
TestParameter, AutoAnalysis.Line1.Point2.Data.StartCondition, 
TestParameter, AutoAnalysis.Line1.GradientExpr, 0
TestParameter, AutoAnalysis.Line2.Enabled, false
TestParameter, AutoAnalysis.Line2.Type, 1
TestParameter, AutoAnalysis.Line2.Fix, True
TestParameter, AutoAnalysis.Line2.YAxis, 0
TestParameter, AutoAnalysis.Line2.Point1.Type, 0
TestParameter, AutoAnalysis.Line2.Point1.XY.X, 
TestParameter, AutoAnalysis.Line2.Point1.XY.Y, 
TestParameter, AutoAnalysis.Line2.Point1.Data.Var, 
TestParameter, AutoAnalysis.Line2.Point1.Data.Condition, 
TestParameter, AutoAnalysis.Line2.Point1.Data.Start, false
TestParameter, AutoAnalysis.Line2.Point1.Data.StartVar, 
TestParameter, AutoAnalysis.Line2.Point1.Data.StartCondition, 
TestParameter, AutoAnalysis.Line2.Point2.Type, 0
TestParameter, AutoAnalysis.Line2.Point2.XY.X, 
TestParameter, AutoAnalysis.Line2.Point2.XY.Y, 
TestParameter, AutoAnalysis.Line2.Point2.Data.Var, 
TestParameter, AutoAnalysis.Line2.Point2.Data.Condition, 
TestParameter, AutoAnalysis.Line2.Point2.Data.Start, false
TestParameter, AutoAnalysis.Line2.Point2.Data.StartVar, 
TestParameter, AutoAnalysis.Line2.Point2.Data.StartCondition, 
TestParameter, AutoAnalysis.Line2.GradientExpr, 0
TestParameter, AutoAnalysis.Marker.Enabled, false
TestParameter, AutoAnalysis.Marker.Data.Var, 
TestParameter, AutoAnalysis.Marker.Data.Condition, 
TestParameter, AutoAnalysis.Marker.Data.Start, false
TestParameter, AutoAnalysis.Marker.Data.StartVar, 
TestParameter, AutoAnalysis.Marker.Data.StartCondition, 
MetaData, TestRecord.EntryPoint, true
MetaData, TestRecord.RecordTime, 11/17/2023 21:10:10
MetaData, TestRecord.TestTarget, step6_3
MetaData, TestRecord.IterationIndex, 1
MetaData, TestRecord.Preservation, true
MetaData, TestRecord.Flag, 
MetaData, TestRecord.Remarks, 
MetaData, TestRecord.LinkKey, e810ce72-4d16-4061-bde9-f34d7a871b16
Dimension1, 41, 41, 41
Dimension2, 1, 1, 1
DataName, Vca, Ica, R
DataValue, 0, -3.82E-13, -0
DataValue, 0.05, 4.55E-13, 109890109890.11002
DataValue, 0.1, 8.8800000000000015E-13, 112612612612.61299
DataValue, 0.15000000000000002, 1.1399999999999998E-12, 131578947368.42099
DataValue, 0.2, 1.437E-12, 139178844815.588
DataValue, 0.25, 1.645E-12, 151975683890.578
DataValue, 0.30000000000000004, 1.806E-12, 166112956810.631
DataValue, 0.35000000000000003, 2E-12, 175000000000
DataValue, 0.4, 2.166E-12, 184672206832.872
DataValue, 0.45, 2.3319999999999998E-12, 192967409948.542
DataValue, 0.5, 2.48E-12, 201612903225.806
DataValue, 0.55, 2.645E-12, 207939508506.61603
DataValue, 0.60000000000000009, 2.8010000000000003E-12, 214209210996.07303
DataValue, 0.65, 2.9300000000000002E-12, 221843003412.969
DataValue, 0.70000000000000007, 3.065E-12, 228384991843.39298
DataValue, 0.75, 3.192E-12, 234962406015.03803
DataValue, 0.8, 3.303E-12, 242204056917.953
DataValue, 0.85000000000000009, 3.442E-12, 246949447995.35202
DataValue, 0.9, 3.58E-12, 251396648044.69302
DataValue, 0.95000000000000007, 3.643E-12, 260774087290.69397
DataValue, 1, 3.7459999999999996E-12, 266951414842.499
DataValue, 1.05, 3.8749999999999995E-12, 270967741935.48398
DataValue, 1.1, 3.9879999999999996E-12, 275827482447.342
DataValue, 1.15, 4.088E-12, 281311154598.826
DataValue, 1.2, 4.157E-12, 288669713735.867
DataValue, 1.25, 4.279E-12, 292124328114.045
DataValue, 1.3, 4.379E-12, 296871431833.752
DataValue, 1.35, 4.5039999999999994E-12, 299733570159.85803
DataValue, 1.4, 4.596E-12, 304612706701.48004
DataValue, 1.45, 4.6689999999999996E-12, 310559006211.18
DataValue, 1.5, 4.756E-12, 315391084945.332
DataValue, 1.55, 4.8719999999999994E-12, 318144499178.982
DataValue, 1.6, 4.9740000000000004E-12, 321672698029.755
DataValue, 1.65, 5.0730000000000007E-12, 325251330573.625
DataValue, 1.7, 5.1340000000000005E-12, 331125827814.57
DataValue, 1.75, 5.215E-12, 335570469798.65796
DataValue, 1.8, 5.277E-12, 341102899374.645
DataValue, 1.85, 5.452E-12, 339325018341.893
DataValue, 1.9, 5.501E-12, 345391746955.099
DataValue, 1.95, 5.612E-12, 347469707769.066
DataValue, 2, 5.694E-12, 351246926589.392