
SetupTitle, C IV leak
PrimitiveTest, I/V Sweep
TestParameter, Context.MainFrame, B1500A
TestParameter, Channel.UnitType, SMU, SMU, SMU
TestParameter, Channel.Unit, SMU1:MP, SMU2:MP, GNDU:GND
TestParameter, Channel.IName, Ica, Icb, IEE
TestParameter, Channel.VName, Vca, Vcb, VEE
TestParameter, Channel.Mode, V, COMMON, COMMON
TestParameter, Channel.Func, VAR1, CONST, CONST
TestParameter, Channel.Index, 
TestParameter, Channel.Time, 
TestParameter, Measurement.Port.Unit, SMU1:MP, SMU2:MP, GNDU:GND
TestParameter, Measurement.Port.SeriesResistor, NONE, NONE, NONE
TestParameter, Measurement.Port.Filter, ON, ON, ON
TestParameter, Measurement.Primary.Locus, Single
TestParameter, Measurement.Primary.Scale, LINEAR
TestParameter, Measurement.Primary.Start, 0
TestParameter, Measurement.Primary.Stop, 2
TestParameter, Measurement.Primary.Step, 0.05
TestParameter, Measurement.Primary.Compliance, 0.003
TestParameter, Measurement.Primary.PowerCompliance, 0
TestParameter, Measurement.Aborting.Condition, CONTINUE AT ANY
TestParameter, Measurement.PostOutput.Value, START
TestParameter, Measurement.PostOutput.Retention, OFF
TestParameter, Measurement.Bias.Source, 0, 0, 0
TestParameter, Measurement.Bias.Compliance, 0.003, 0.1, 1
TestParameter, Measurement.Monitor.Unit, SMU1:MP, SMU2:MP, GNDU:GND
TestParameter, Measurement.Monitor.Adc, HR ADC, HR ADC, HR ADC
TestParameter, Measurement.Monitor.RangingMode, LIMITED, LIMITED, LIMITED
TestParameter, Measurement.Monitor.RangeBoundary, 1nA, 1nA, 1nA
TestParameter, Measurement.Monitor.RangeRating, BY FULL RANGE, BY FULL RANGE, BY FULL RANGE
TestParameter, Measurement.Monitor.RangeRatingCoeff, 50, 50, 50
TestParameter, Measurement.Timing.Hold, 0.01
TestParameter, Measurement.Timing.Delay, 0.001
TestParameter, Measurement.Adc.HighSpeed.Mode, AUTO
TestParameter, Measurement.Adc.HighSpeed.Coeff, 1
TestParameter, Measurement.Adc.HighResolution.AutoZero, OFF
TestParameter, Measurement.Adc.HighResolution.Mode, PLC
TestParameter, Measurement.Adc.HighResolution.Coeff, 10
TestParameter, Measurement.WaitTime.Source.Coeff, 1
TestParameter, Measurement.WaitTime.Source.Offset, 0
TestParameter, Measurement.WaitTime.Monitor.Coeff, 1
TestParameter, Measurement.WaitTime.Monitor.Offset, 0
TestParameter, Function.User.Name, R
TestParameter, Function.User.Unit, ohm
TestParameter, Function.User.Definition, Vca/Ica
TestParameter, Output.Graph.Enabled, true
TestParameter, Output.Graph.XAxis.Data, Vca
TestParameter, Output.Graph.XAxis.Scale, Linear
TestParameter, Output.Graph.XAxis.Left, 0
TestParameter, Output.Graph.XAxis.Right, 2
TestParameter, Output.Graph.YAxis.Data, Ica
TestParameter, Output.Graph.YAxis.Scale, Linear
TestParameter, Output.Graph.YAxis.Bottom, 0
TestParameter, Output.Graph.YAxis.Top, 1E-11
TestParameter, Output.Graph.YAxis.Group, 
TestParameter, AutoAnalysis.Interpolation, false
TestParameter, AutoAnalysis.Line1.Enabled, false
TestParameter, AutoAnalysis.Line1.Type, 2
TestParameter, AutoAnalysis.Line1.Fix, False
TestParameter, AutoAnalysis.Line1.YAxis, 0
TestParameter, AutoAnalysis.Line1.Point1.Type, 0
TestParameter, AutoAnalysis.Line1.Point1.XY.X, 
TestParameter, AutoAnalysis.Line1.Point1.XY.Y, 
TestParameter, AutoAnalysis.Line1.Point1.Data.Var, 
TestParameter, AutoAnalysis.Line1.Point1.Data.Condition, 
TestParameter, AutoAnalysis.Line1.Point1.Data.Start, false
TestParameter, AutoAnalysis.Line1.Point1.Data.StartVar, 
TestParameter, AutoAnalysis.Line1.Point1.Data.StartCondition, 
TestParameter, AutoAnalysis.Line1.Point2.Type, 0
TestParameter, AutoAnalysis.Line1.Point2.XY.X, 
TestParameter, AutoAnalysis.Line1.Point2.XY.Y, 
TestParameter, AutoAnalysis.Line1.Point2.Data.Var, 
TestParameter, AutoAnalysis.Line1.Point2.Data.Condition, 
TestParameter, AutoAnalysis.Line1.Point2.Data.Start, false
TestParameter, AutoAnalysis.Line1.Point2.Data.StartVar, 
TestParameter, AutoAnalysis.Line1.Point2.Data.StartCondition, 
TestParameter, AutoAnalysis.Line1.GradientExpr, 0
TestParameter, AutoAnalysis.Line2.Enabled, false
TestParameter, AutoAnalysis.Line2.Type, 1
TestParameter, AutoAnalysis.Line2.Fix, True
TestParameter, AutoAnalysis.Line2.YAxis, 0
TestParameter, AutoAnalysis.Line2.Point1.Type, 0
TestParameter, AutoAnalysis.Line2.Point1.XY.X, 
TestParameter, AutoAnalysis.Line2.Point1.XY.Y, 
TestParameter, AutoAnalysis.Line2.Point1.Data.Var, 
TestParameter, AutoAnalysis.Line2.Point1.Data.Condition, 
TestParameter, AutoAnalysis.Line2.Point1.Data.Start, false
TestParameter, AutoAnalysis.Line2.Point1.Data.StartVar, 
TestParameter, AutoAnalysis.Line2.Point1.Data.StartCondition, 
TestParameter, AutoAnalysis.Line2.Point2.Type, 0
TestParameter, AutoAnalysis.Line2.Point2.XY.X, 
TestParameter, AutoAnalysis.Line2.Point2.XY.Y, 
TestParameter, AutoAnalysis.Line2.Point2.Data.Var, 
TestParameter, AutoAnalysis.Line2.Point2.Data.Condition, 
TestParameter, AutoAnalysis.Line2.Point2.Data.Start, false
TestParameter, AutoAnalysis.Line2.Point2.Data.StartVar, 
TestParameter, AutoAnalysis.Line2.Point2.Data.StartCondition, 
TestParameter, AutoAnalysis.Line2.GradientExpr, 0
TestParameter, AutoAnalysis.Marker.Enabled, false
TestParameter, AutoAnalysis.Marker.Data.Var, 
TestParameter, AutoAnalysis.Marker.Data.Condition, 
TestParameter, AutoAnalysis.Marker.Data.Start, false
TestParameter, AutoAnalysis.Marker.Data.StartVar, 
TestParameter, AutoAnalysis.Marker.Data.StartCondition, 
MetaData, TestRecord.EntryPoint, true
MetaData, TestRecord.RecordTime, 11/17/2023 20:53:50
MetaData, TestRecord.TestTarget, step6_6
MetaData, TestRecord.IterationIndex, 1
MetaData, TestRecord.Preservation, true
MetaData, TestRecord.Flag, 
MetaData, TestRecord.Remarks, 
MetaData, TestRecord.LinkKey, b325d47c-523a-49b8-9e7d-3ddaa30a1919
Dimension1, 41, 41, 41
Dimension2, 1, 1, 1
DataName, Vca, Ica, R
DataValue, 0, -2.46E-13, -0
DataValue, 0.05, 4.5400000000000003E-13, 110132158590.308
DataValue, 0.1, 7.9100000000000006E-13, 126422250316.056
DataValue, 0.15000000000000002, 1.116E-12, 134408602150.53801
DataValue, 0.2, 1.3009999999999998E-12, 153727901614.143
DataValue, 0.25, 1.453E-12, 172057811424.639
DataValue, 0.30000000000000004, 1.655E-12, 181268882175.22702
DataValue, 0.35000000000000003, 1.8089999999999999E-12, 193477059148.701
DataValue, 0.4, 1.981E-12, 201918223119.637
DataValue, 0.45, 2.1589999999999996E-12, 208429828624.363
DataValue, 0.5, 2.262E-12, 221043324491.6
DataValue, 0.55, 2.3330000000000003E-12, 235747963994.856
DataValue, 0.60000000000000009, 2.466E-12, 243309002433.09
DataValue, 0.65, 2.5899999999999997E-12, 250965250965.251
DataValue, 0.70000000000000007, 2.6789999999999998E-12, 261291526689.06302
DataValue, 0.75, 2.859E-12, 262329485834.208
DataValue, 0.8, 2.914E-12, 274536719286.20502
DataValue, 0.85000000000000009, 3.0779999999999996E-12, 276153346328.785
DataValue, 0.9, 3.129E-12, 287631831255.992
DataValue, 0.95000000000000007, 3.239E-12, 293300401358.44403
DataValue, 1, 3.394E-12, 294637595757.219
DataValue, 1.05, 3.4679999999999998E-12, 302768166089.96497
DataValue, 1.1, 3.571E-12, 308036964435.732
DataValue, 1.15, 3.651E-12, 314982196658.45
DataValue, 1.2, 3.674E-12, 326619488296.135
DataValue, 1.25, 3.837E-12, 325775345321.866
DataValue, 1.3, 3.9220000000000005E-12, 331463539010.70905
DataValue, 1.35, 3.9879999999999996E-12, 338515546639.92
DataValue, 1.4, 4.093E-12, 342047397996.58
DataValue, 1.45, 4.12E-12, 351941747572.81604
DataValue, 1.5, 4.238E-12, 353940537989.61804
DataValue, 1.55, 4.311E-12, 359545349106.936
DataValue, 1.6, 4.342E-12, 368493781667.43396
DataValue, 1.65, 4.559E-12, 361921474007.458
DataValue, 1.7, 4.601E-12, 369484894588.133
DataValue, 1.75, 4.564E-12, 383435582822.086
DataValue, 1.8, 4.689E-12, 383877159309.021
DataValue, 1.85, 4.7699999999999993E-12, 387840670859.539
DataValue, 1.9, 4.8189999999999996E-12, 394272670678.564
DataValue, 1.95, 4.94E-12, 394736842105.263
DataValue, 2, 5.009E-12, 399281293671.391