
SetupTitle, C IV leak
PrimitiveTest, I/V Sweep
TestParameter, Context.MainFrame, B1500A
TestParameter, Channel.UnitType, SMU, SMU, SMU
TestParameter, Channel.Unit, SMU1:MP, SMU2:MP, GNDU:GND
TestParameter, Channel.IName, Ica, Icb, IEE
TestParameter, Channel.VName, Vca, Vcb, VEE
TestParameter, Channel.Mode, V, COMMON, COMMON
TestParameter, Channel.Func, VAR1, CONST, CONST
TestParameter, Channel.Index, 
TestParameter, Channel.Time, 
TestParameter, Measurement.Port.Unit, SMU1:MP, SMU2:MP, GNDU:GND
TestParameter, Measurement.Port.SeriesResistor, NONE, NONE, NONE
TestParameter, Measurement.Port.Filter, ON, ON, ON
TestParameter, Measurement.Primary.Locus, Single
TestParameter, Measurement.Primary.Scale, LINEAR
TestParameter, Measurement.Primary.Start, 0
TestParameter, Measurement.Primary.Stop, 2
TestParameter, Measurement.Primary.Step, 0.05
TestParameter, Measurement.Primary.Compliance, 0.003
TestParameter, Measurement.Primary.PowerCompliance, 0
TestParameter, Measurement.Aborting.Condition, CONTINUE AT ANY
TestParameter, Measurement.PostOutput.Value, START
TestParameter, Measurement.PostOutput.Retention, OFF
TestParameter, Measurement.Bias.Source, 0, 0, 0
TestParameter, Measurement.Bias.Compliance, 0.003, 0.1, 1
TestParameter, Measurement.Monitor.Unit, SMU1:MP, SMU2:MP, GNDU:GND
TestParameter, Measurement.Monitor.Adc, HR ADC, HR ADC, HR ADC
TestParameter, Measurement.Monitor.RangingMode, LIMITED, LIMITED, LIMITED
TestParameter, Measurement.Monitor.RangeBoundary, 1nA, 1nA, 1nA
TestParameter, Measurement.Monitor.RangeRating, BY FULL RANGE, BY FULL RANGE, BY FULL RANGE
TestParameter, Measurement.Monitor.RangeRatingCoeff, 50, 50, 50
TestParameter, Measurement.Timing.Hold, 0.01
TestParameter, Measurement.Timing.Delay, 0.001
TestParameter, Measurement.Adc.HighSpeed.Mode, AUTO
TestParameter, Measurement.Adc.HighSpeed.Coeff, 1
TestParameter, Measurement.Adc.HighResolution.AutoZero, OFF
TestParameter, Measurement.Adc.HighResolution.Mode, PLC
TestParameter, Measurement.Adc.HighResolution.Coeff, 10
TestParameter, Measurement.WaitTime.Source.Coeff, 1
TestParameter, Measurement.WaitTime.Source.Offset, 0
TestParameter, Measurement.WaitTime.Monitor.Coeff, 1
TestParameter, Measurement.WaitTime.Monitor.Offset, 0
TestParameter, Function.User.Name, R
TestParameter, Function.User.Unit, ohm
TestParameter, Function.User.Definition, Vca/Ica
TestParameter, Output.Graph.Enabled, true
TestParameter, Output.Graph.XAxis.Data, Vca
TestParameter, Output.Graph.XAxis.Scale, Linear
TestParameter, Output.Graph.XAxis.Left, 0
TestParameter, Output.Graph.XAxis.Right, 2
TestParameter, Output.Graph.YAxis.Data, Ica
TestParameter, Output.Graph.YAxis.Scale, Linear
TestParameter, Output.Graph.YAxis.Bottom, 0
TestParameter, Output.Graph.YAxis.Top, 1E-11
TestParameter, Output.Graph.YAxis.Group, 
TestParameter, AutoAnalysis.Interpolation, false
TestParameter, AutoAnalysis.Line1.Enabled, false
TestParameter, AutoAnalysis.Line1.Type, 2
TestParameter, AutoAnalysis.Line1.Fix, False
TestParameter, AutoAnalysis.Line1.YAxis, 0
TestParameter, AutoAnalysis.Line1.Point1.Type, 0
TestParameter, AutoAnalysis.Line1.Point1.XY.X, 
TestParameter, AutoAnalysis.Line1.Point1.XY.Y, 
TestParameter, AutoAnalysis.Line1.Point1.Data.Var, 
TestParameter, AutoAnalysis.Line1.Point1.Data.Condition, 
TestParameter, AutoAnalysis.Line1.Point1.Data.Start, false
TestParameter, AutoAnalysis.Line1.Point1.Data.StartVar, 
TestParameter, AutoAnalysis.Line1.Point1.Data.StartCondition, 
TestParameter, AutoAnalysis.Line1.Point2.Type, 0
TestParameter, AutoAnalysis.Line1.Point2.XY.X, 
TestParameter, AutoAnalysis.Line1.Point2.XY.Y, 
TestParameter, AutoAnalysis.Line1.Point2.Data.Var, 
TestParameter, AutoAnalysis.Line1.Point2.Data.Condition, 
TestParameter, AutoAnalysis.Line1.Point2.Data.Start, false
TestParameter, AutoAnalysis.Line1.Point2.Data.StartVar, 
TestParameter, AutoAnalysis.Line1.Point2.Data.StartCondition, 
TestParameter, AutoAnalysis.Line1.GradientExpr, 0
TestParameter, AutoAnalysis.Line2.Enabled, false
TestParameter, AutoAnalysis.Line2.Type, 1
TestParameter, AutoAnalysis.Line2.Fix, True
TestParameter, AutoAnalysis.Line2.YAxis, 0
TestParameter, AutoAnalysis.Line2.Point1.Type, 0
TestParameter, AutoAnalysis.Line2.Point1.XY.X, 
TestParameter, AutoAnalysis.Line2.Point1.XY.Y, 
TestParameter, AutoAnalysis.Line2.Point1.Data.Var, 
TestParameter, AutoAnalysis.Line2.Point1.Data.Condition, 
TestParameter, AutoAnalysis.Line2.Point1.Data.Start, false
TestParameter, AutoAnalysis.Line2.Point1.Data.StartVar, 
TestParameter, AutoAnalysis.Line2.Point1.Data.StartCondition, 
TestParameter, AutoAnalysis.Line2.Point2.Type, 0
TestParameter, AutoAnalysis.Line2.Point2.XY.X, 
TestParameter, AutoAnalysis.Line2.Point2.XY.Y, 
TestParameter, AutoAnalysis.Line2.Point2.Data.Var, 
TestParameter, AutoAnalysis.Line2.Point2.Data.Condition, 
TestParameter, AutoAnalysis.Line2.Point2.Data.Start, false
TestParameter, AutoAnalysis.Line2.Point2.Data.StartVar, 
TestParameter, AutoAnalysis.Line2.Point2.Data.StartCondition, 
TestParameter, AutoAnalysis.Line2.GradientExpr, 0
TestParameter, AutoAnalysis.Marker.Enabled, false
TestParameter, AutoAnalysis.Marker.Data.Var, 
TestParameter, AutoAnalysis.Marker.Data.Condition, 
TestParameter, AutoAnalysis.Marker.Data.Start, false
TestParameter, AutoAnalysis.Marker.Data.StartVar, 
TestParameter, AutoAnalysis.Marker.Data.StartCondition, 
MetaData, TestRecord.EntryPoint, true
MetaData, TestRecord.RecordTime, 10/24/2023 13:57:38
MetaData, TestRecord.TestTarget, step0_2
MetaData, TestRecord.IterationIndex, 1
MetaData, TestRecord.Preservation, true
MetaData, TestRecord.Flag, 
MetaData, TestRecord.Remarks, 
MetaData, TestRecord.LinkKey, 0f40afff-2eb8-41e5-abd9-0398e3689f87
Dimension1, 41, 41, 41
Dimension2, 1, 1, 1
DataName, Vca, Ica, R
DataValue, 0, -3.53E-13, -0
DataValue, 0.05, 4.99E-13, 100200400801.603
DataValue, 0.1, 9.68E-13, 103305785123.967
DataValue, 0.15000000000000002, 1.327E-12, 113036925395.629
DataValue, 0.2, 1.594E-12, 125470514429.109
DataValue, 0.25, 1.841E-12, 135795763172.189
DataValue, 0.30000000000000004, 2.096E-12, 143129770992.366
DataValue, 0.35000000000000003, 2.293E-12, 152638464893.153
DataValue, 0.4, 2.4359999999999997E-12, 164203612479.475
DataValue, 0.45, 2.677E-12, 168098617855.809
DataValue, 0.5, 2.8119999999999997E-12, 177809388335.704
DataValue, 0.55, 2.977E-12, 184749748068.525
DataValue, 0.60000000000000009, 3.102E-12, 193423597678.917
DataValue, 0.65, 3.325E-12, 195488721804.511
DataValue, 0.70000000000000007, 3.391E-12, 206428782070.186
DataValue, 0.75, 3.533E-12, 212284177752.618
DataValue, 0.8, 3.749E-12, 213390237396.63898
DataValue, 0.85000000000000009, 3.852E-12, 220664589823.468
DataValue, 0.9, 3.978E-12, 226244343891.403
DataValue, 0.95000000000000007, 4.092E-12, 232160312805.47397
DataValue, 1, 4.226E-12, 236630383341.221
DataValue, 1.05, 4.342E-12, 241824044219.254
DataValue, 1.1, 4.4539999999999994E-12, 246969016614.27902
DataValue, 1.15, 4.578E-12, 251201397990.389
DataValue, 1.2, 4.639E-12, 258676438887.69098
DataValue, 1.25, 4.793E-12, 260796995618.61
DataValue, 1.3, 4.9139999999999995E-12, 264550264550.265
DataValue, 1.35, 5.0199999999999992E-12, 268924302788.845
DataValue, 1.4, 5.123E-12, 273277376537.18497
DataValue, 1.45, 5.2009999999999993E-12, 278792539896.174
DataValue, 1.5, 5.3390000000000006E-12, 280951489042.892
DataValue, 1.55, 5.4429999999999993E-12, 284769428623.92096
DataValue, 1.6, 5.502E-12, 290803344238.459
DataValue, 1.65, 5.62E-12, 293594306049.822
DataValue, 1.7, 5.751E-12, 295600765084.333
DataValue, 1.75, 5.8449999999999994E-12, 299401197604.79
DataValue, 1.8, 5.967E-12, 301659125188.537
DataValue, 1.85, 6.0570000000000005E-12, 305431731880.469
DataValue, 1.9, 6.147E-12, 309093866926.956
DataValue, 1.95, 6.224E-12, 313303341902.31396
DataValue, 2, 6.2889999999999996E-12, 318015582763.555