
SetupTitle, NMOS1 ID VDS
PrimitiveTest, I/V Sweep
TestParameter, Context.MainFrame, B1500A
TestParameter, Channel.UnitType, SMU, SMU, SMU, SMU, SMU
TestParameter, Channel.Unit, SMU1:MP, SMU2:MP, SMU3:MP, SMU4:MP, GNDU:GND
TestParameter, Channel.IName, IG, IS, ID, IDD, IEE
TestParameter, Channel.VName, VG, VS, VD, VDD, VEE
TestParameter, Channel.Mode, V, V, V, V, COMMON
TestParameter, Channel.Func, VAR2, CONST, VAR1, CONST, CONST
TestParameter, Channel.Index, 
TestParameter, Channel.Time, 
TestParameter, Measurement.Port.Unit, SMU1:MP, SMU2:MP, SMU3:MP, SMU4:MP, GNDU:GND
TestParameter, Measurement.Port.SeriesResistor, NONE, NONE, NONE, NONE, NONE
TestParameter, Measurement.Port.Filter, ON, ON, ON, ON, ON
TestParameter, Measurement.Primary.Locus, Single
TestParameter, Measurement.Primary.Scale, LINEAR
TestParameter, Measurement.Primary.Start, 0
TestParameter, Measurement.Primary.Stop, 2.5
TestParameter, Measurement.Primary.Step, 0.01
TestParameter, Measurement.Primary.Compliance, 0.02
TestParameter, Measurement.Primary.PowerCompliance, 0
TestParameter, Measurement.Aborting.Condition, CONTINUE AT ANY
TestParameter, Measurement.PostOutput.Value, START
TestParameter, Measurement.PostOutput.Retention, OFF
TestParameter, Measurement.Secondary.Start, 0
TestParameter, Measurement.Secondary.Count, 6
TestParameter, Measurement.Secondary.Step, 0.1
TestParameter, Measurement.Secondary.Compliance, 1E-05
TestParameter, Measurement.Secondary.PowerCompliance, 0
TestParameter, Measurement.Bias.Source, 0, 0, 0, 2.5, 0
TestParameter, Measurement.Bias.Compliance, 1E-05, 0.1, 0.02, 0.1, 1
TestParameter, Measurement.Monitor.Unit, SMU1:MP, SMU2:MP, SMU3:MP, SMU4:MP, GNDU:GND
TestParameter, Measurement.Monitor.Adc, HR ADC, HR ADC, HR ADC, HR ADC, HR ADC
TestParameter, Measurement.Monitor.RangingMode, LIMITED, LIMITED, LIMITED, LIMITED, LIMITED
TestParameter, Measurement.Monitor.RangeBoundary, 1nA, 1nA, 1nA, 1nA, 1nA
TestParameter, Measurement.Monitor.RangeRating, BY FULL RANGE, BY FULL RANGE, BY FULL RANGE, BY FULL RANGE, BY FULL RANGE
TestParameter, Measurement.Monitor.RangeRatingCoeff, 50, 50, 50, 50, 50
TestParameter, Measurement.Timing.Hold, 0
TestParameter, Measurement.Timing.Delay, 0
TestParameter, Measurement.Adc.HighSpeed.Mode, AUTO
TestParameter, Measurement.Adc.HighSpeed.Coeff, 1
TestParameter, Measurement.Adc.HighResolution.AutoZero, OFF
TestParameter, Measurement.Adc.HighResolution.Mode, AUTO
TestParameter, Measurement.Adc.HighResolution.Coeff, 127
TestParameter, Measurement.WaitTime.Source.Coeff, 1
TestParameter, Measurement.WaitTime.Source.Offset, 0
TestParameter, Measurement.WaitTime.Monitor.Coeff, 1
TestParameter, Measurement.WaitTime.Monitor.Offset, 0
TestParameter, Output.Graph.Enabled, true
TestParameter, Output.Graph.XAxis.Data, VD
TestParameter, Output.Graph.XAxis.Scale, Linear
TestParameter, Output.Graph.XAxis.Left, 0
TestParameter, Output.Graph.XAxis.Right, 2.5
TestParameter, Output.Graph.YAxis.Data, ID
TestParameter, Output.Graph.YAxis.Scale, Log
TestParameter, Output.Graph.YAxis.Bottom, 1E-09
TestParameter, Output.Graph.YAxis.Top, 0.1
TestParameter, Output.Graph.YAxis.Group, 
TestParameter, AutoAnalysis.Interpolation, false
TestParameter, AutoAnalysis.Line1.Enabled, false
TestParameter, AutoAnalysis.Line1.Type, 1
TestParameter, AutoAnalysis.Line1.Fix, True
TestParameter, AutoAnalysis.Line1.YAxis, 0
TestParameter, AutoAnalysis.Line1.Point1.Type, 0
TestParameter, AutoAnalysis.Line1.Point1.XY.X, 
TestParameter, AutoAnalysis.Line1.Point1.XY.Y, 
TestParameter, AutoAnalysis.Line1.Point1.Data.Var, 
TestParameter, AutoAnalysis.Line1.Point1.Data.Condition, 
TestParameter, AutoAnalysis.Line1.Point1.Data.Start, false
TestParameter, AutoAnalysis.Line1.Point1.Data.StartVar, 
TestParameter, AutoAnalysis.Line1.Point1.Data.StartCondition, 
TestParameter, AutoAnalysis.Line1.Point2.Type, 0
TestParameter, AutoAnalysis.Line1.Point2.XY.X, 
TestParameter, AutoAnalysis.Line1.Point2.XY.Y, 
TestParameter, AutoAnalysis.Line1.Point2.Data.Var, 
TestParameter, AutoAnalysis.Line1.Point2.Data.Condition, 
TestParameter, AutoAnalysis.Line1.Point2.Data.Start, false
TestParameter, AutoAnalysis.Line1.Point2.Data.StartVar, 
TestParameter, AutoAnalysis.Line1.Point2.Data.StartCondition, 
TestParameter, AutoAnalysis.Line1.GradientExpr, 0
TestParameter, AutoAnalysis.Line2.Enabled, false
TestParameter, AutoAnalysis.Line2.Type, 1
TestParameter, AutoAnalysis.Line2.Fix, True
TestParameter, AutoAnalysis.Line2.YAxis, 0
TestParameter, AutoAnalysis.Line2.Point1.Type, 0
TestParameter, AutoAnalysis.Line2.Point1.XY.X, 
TestParameter, AutoAnalysis.Line2.Point1.XY.Y, 
TestParameter, AutoAnalysis.Line2.Point1.Data.Var, 
TestParameter, AutoAnalysis.Line2.Point1.Data.Condition, 
TestParameter, AutoAnalysis.Line2.Point1.Data.Start, false
TestParameter, AutoAnalysis.Line2.Point1.Data.StartVar, 
TestParameter, AutoAnalysis.Line2.Point1.Data.StartCondition, 
TestParameter, AutoAnalysis.Line2.Point2.Type, 0
TestParameter, AutoAnalysis.Line2.Point2.XY.X, 
TestParameter, AutoAnalysis.Line2.Point2.XY.Y, 
TestParameter, AutoAnalysis.Line2.Point2.Data.Var, 
TestParameter, AutoAnalysis.Line2.Point2.Data.Condition, 
TestParameter, AutoAnalysis.Line2.Point2.Data.Start, false
TestParameter, AutoAnalysis.Line2.Point2.Data.StartVar, 
TestParameter, AutoAnalysis.Line2.Point2.Data.StartCondition, 
TestParameter, AutoAnalysis.Line2.GradientExpr, 0
TestParameter, AutoAnalysis.Marker.Enabled, false
TestParameter, AutoAnalysis.Marker.Data.Var, 
TestParameter, AutoAnalysis.Marker.Data.Condition, 
TestParameter, AutoAnalysis.Marker.Data.Start, false
TestParameter, AutoAnalysis.Marker.Data.StartVar, 
TestParameter, AutoAnalysis.Marker.Data.StartCondition, 
MetaData, TestRecord.EntryPoint, true
MetaData, TestRecord.RecordTime, 10/24/2023 14:46:39
MetaData, TestRecord.TestTarget, step0_5
MetaData, TestRecord.IterationIndex, 1
MetaData, TestRecord.Preservation, true
MetaData, TestRecord.Flag, 
MetaData, TestRecord.Remarks, 
MetaData, TestRecord.LinkKey, 511006f6-e139-4837-8a3b-d3e4f1438fbe
Dimension1, 251, 251
Dimension2, 6, 6
DataName, VD, ID
DataValue, 0, -3.7949500000000004E-10
DataValue, 0.01, 8.5633E-09
DataValue, 0.02, 1.48828E-08
DataValue, 0.03, 1.92696E-08
DataValue, 0.04, 2.24813E-08
DataValue, 0.05, 2.4813000000000002E-08
DataValue, 0.06, 2.65549E-08
DataValue, 0.07, 2.7855E-08
DataValue, 0.08, 2.88941E-08
DataValue, 0.09, 2.97336E-08
DataValue, 0.1, 3.0438000000000004E-08
DataValue, 0.11000000000000001, 3.1052E-08
DataValue, 0.12, 3.15906E-08
DataValue, 0.13, 3.2084000000000005E-08
DataValue, 0.13999999999999999, 3.25579E-08
DataValue, 0.15000000000000002, 3.30118E-08
DataValue, 0.16000000000000003, 3.34639E-08
DataValue, 0.17, 3.3884300000000004E-08
DataValue, 0.18000000000000002, 3.4312900000000005E-08
DataValue, 0.19, 3.47382E-08
DataValue, 0.2, 3.5143E-08
DataValue, 0.21000000000000002, 3.55633E-08
DataValue, 0.22000000000000003, 3.59848E-08
DataValue, 0.22999999999999998, 3.6405E-08
DataValue, 0.24, 3.68234E-08
DataValue, 0.25, 3.7246800000000005E-08
DataValue, 0.26, 3.7664100000000004E-08
DataValue, 0.27, 3.80844E-08
DataValue, 0.27999999999999997, 3.85221E-08
DataValue, 0.29, 3.89428E-08
DataValue, 0.30000000000000004, 3.93654E-08
DataValue, 0.31000000000000005, 3.98139E-08
DataValue, 0.32000000000000006, 4.02316E-08
DataValue, 0.33, 4.0645E-08
DataValue, 0.34, 4.11007E-08
DataValue, 0.35000000000000003, 4.1538199999999995E-08
DataValue, 0.36000000000000004, 4.1968300000000005E-08
DataValue, 0.37000000000000005, 4.24275E-08
DataValue, 0.38, 4.28698E-08
DataValue, 0.39, 4.33007E-08
DataValue, 0.4, 4.37468E-08
DataValue, 0.41, 4.42033E-08
DataValue, 0.42000000000000004, 4.46487E-08
DataValue, 0.43, 4.5097699999999995E-08
DataValue, 0.44000000000000006, 4.55692E-08
DataValue, 0.45, 4.60154E-08
DataValue, 0.45999999999999996, 4.64769E-08
DataValue, 0.47000000000000003, 4.6952800000000006E-08
DataValue, 0.48, 4.74174E-08
DataValue, 0.49000000000000005, 4.7892E-08
DataValue, 0.5, 4.8368E-08
DataValue, 0.51, 4.88414E-08
DataValue, 0.52, 4.9328500000000004E-08
DataValue, 0.53, 4.98042E-08
DataValue, 0.54, 5.0274400000000006E-08
DataValue, 0.55, 5.07714E-08
DataValue, 0.55999999999999994, 5.1253E-08
DataValue, 0.57000000000000006, 5.17394E-08
DataValue, 0.58, 5.22571E-08
DataValue, 0.59000000000000008, 5.2736099999999995E-08
DataValue, 0.60000000000000009, 5.3240600000000005E-08
DataValue, 0.61, 5.3740300000000006E-08
DataValue, 0.62000000000000011, 5.42508E-08
DataValue, 0.63, 5.47628E-08
DataValue, 0.64000000000000012, 5.5267900000000004E-08
DataValue, 0.65, 5.57806E-08
DataValue, 0.66, 5.62881E-08
DataValue, 0.67, 5.6802200000000006E-08
DataValue, 0.68, 5.73278E-08
DataValue, 0.69000000000000006, 5.78502E-08
DataValue, 0.70000000000000007, 5.8366900000000004E-08
DataValue, 0.71, 5.89091E-08
DataValue, 0.72000000000000008, 5.94548E-08
DataValue, 0.73, 5.99937E-08
DataValue, 0.7400000000000001, 6.05498E-08
DataValue, 0.75, 6.1094999999999992E-08
DataValue, 0.76, 6.16362E-08
DataValue, 0.77, 6.21721E-08
DataValue, 0.78, 6.27595E-08
DataValue, 0.79, 6.33269E-08
DataValue, 0.8, 6.38934E-08
DataValue, 0.81, 6.44349E-08
DataValue, 0.82, 6.5011599999999992E-08
DataValue, 0.83000000000000007, 6.5583900000000008E-08
DataValue, 0.84000000000000008, 6.61647E-08
DataValue, 0.85000000000000009, 6.6733E-08
DataValue, 0.86, 6.73201E-08
DataValue, 0.87, 6.7926700000000007E-08
DataValue, 0.88000000000000012, 6.85063E-08
DataValue, 0.89000000000000012, 6.9082E-08
DataValue, 0.9, 6.9688E-08
DataValue, 0.91, 7.03064E-08
DataValue, 0.91999999999999993, 7.0906599999999993E-08
DataValue, 0.93000000000000016, 7.1509E-08
DataValue, 0.94000000000000006, 7.2124499999999992E-08
DataValue, 0.95000000000000007, 7.27557E-08
DataValue, 0.96, 7.3374800000000009E-08
DataValue, 0.97, 7.40012E-08
DataValue, 0.98000000000000009, 7.46238E-08
DataValue, 0.9900000000000001, 7.5259400000000008E-08
DataValue, 1, 7.59038E-08
DataValue, 1.01, 7.65316E-08
DataValue, 1.02, 7.72081E-08
DataValue, 1.03, 7.78585E-08
DataValue, 1.04, 7.85032E-08
DataValue, 1.05, 7.91517E-08
DataValue, 1.06, 7.98011E-08
DataValue, 1.07, 8.0451E-08
DataValue, 1.08, 8.11499E-08
DataValue, 1.09, 8.18186E-08
DataValue, 1.1, 8.25114E-08
DataValue, 1.11, 8.31937E-08
DataValue, 1.12, 8.38846E-08
DataValue, 1.13, 8.4580699999999992E-08
DataValue, 1.14, 8.52642E-08
DataValue, 1.15, 8.5979100000000011E-08
DataValue, 1.16, 8.66484E-08
DataValue, 1.17, 8.7362800000000015E-08
DataValue, 1.18, 8.8095700000000007E-08
DataValue, 1.19, 8.88191E-08
DataValue, 1.2, 8.9530600000000014E-08
DataValue, 1.21, 9.0259400000000009E-08
DataValue, 1.22, 9.098229999999999E-08
DataValue, 1.23, 9.17062E-08
DataValue, 1.24, 9.2450399999999993E-08
DataValue, 1.25, 9.32067E-08
DataValue, 1.26, 9.3933599999999991E-08
DataValue, 1.27, 9.4685400000000012E-08
DataValue, 1.28, 9.5441E-08
DataValue, 1.29, 9.62179E-08
DataValue, 1.3, 9.69862E-08
DataValue, 1.31, 9.77586E-08
DataValue, 1.32, 9.85432E-08
DataValue, 1.33, 9.93234E-08
DataValue, 1.34, 1.0013049999999999E-07
DataValue, 1.35, 1.0092579999999999E-07
DataValue, 1.36, 1.017045E-07
DataValue, 1.37, 1.0252209999999999E-07
DataValue, 1.38, 1.033516E-07
DataValue, 1.39, 1.041545E-07
DataValue, 1.4, 1.05007E-07
DataValue, 1.41, 1.058138E-07
DataValue, 1.42, 1.0664329999999999E-07
DataValue, 1.43, 1.075053E-07
DataValue, 1.44, 1.0833029999999998E-07
DataValue, 1.45, 1.0916999999999999E-07
DataValue, 1.46, 1.10098E-07
DataValue, 1.47, 1.1094299999999999E-07
DataValue, 1.48, 1.1181399999999999E-07
DataValue, 1.49, 1.1265099999999998E-07
DataValue, 1.5, 1.13535E-07
DataValue, 1.51, 1.14457E-07
DataValue, 1.52, 1.15324E-07
DataValue, 1.53, 1.16259E-07
DataValue, 1.54, 1.17127E-07
DataValue, 1.55, 1.1804399999999998E-07
DataValue, 1.56, 1.1897599999999999E-07
DataValue, 1.57, 1.1987699999999998E-07
DataValue, 1.58, 1.20796E-07
DataValue, 1.59, 1.2172499999999999E-07
DataValue, 1.6, 1.2265299999999998E-07
DataValue, 1.61, 1.23615E-07
DataValue, 1.62, 1.24551E-07
DataValue, 1.63, 1.25476E-07
DataValue, 1.64, 1.26438E-07
DataValue, 1.65, 1.27379E-07
DataValue, 1.66, 1.2837499999999998E-07
DataValue, 1.67, 1.2935499999999998E-07
DataValue, 1.68, 1.3034E-07
DataValue, 1.69, 1.3136499999999999E-07
DataValue, 1.7, 1.3235699999999997E-07
DataValue, 1.71, 1.33401E-07
DataValue, 1.72, 1.34402E-07
DataValue, 1.73, 1.35412E-07
DataValue, 1.74, 1.36426E-07
DataValue, 1.75, 1.37524E-07
DataValue, 1.76, 1.38589E-07
DataValue, 1.77, 1.39584E-07
DataValue, 1.78, 1.40665E-07
DataValue, 1.79, 1.41713E-07
DataValue, 1.8, 1.42832E-07
DataValue, 1.81, 1.43873E-07
DataValue, 1.82, 1.44924E-07
DataValue, 1.83, 1.46054E-07
DataValue, 1.84, 1.4711499999999998E-07
DataValue, 1.85, 1.4821599999999998E-07
DataValue, 1.86, 1.4933399999999998E-07
DataValue, 1.87, 1.50478E-07
DataValue, 1.88, 1.51624E-07
DataValue, 1.89, 1.52794E-07
DataValue, 1.9, 1.5391099999999998E-07
DataValue, 1.91, 1.55006E-07
DataValue, 1.92, 1.5622699999999999E-07
DataValue, 1.93, 1.5738399999999998E-07
DataValue, 1.94, 1.58562E-07
DataValue, 1.95, 1.59702E-07
DataValue, 1.96, 1.60847E-07
DataValue, 1.97, 1.6209899999999998E-07
DataValue, 1.98, 1.6325099999999998E-07
DataValue, 1.99, 1.645E-07
DataValue, 2, 1.6570299999999999E-07
DataValue, 2.01, 1.66942E-07
DataValue, 2.02, 1.68208E-07
DataValue, 2.03, 1.6946300000000001E-07
DataValue, 2.04, 1.7072400000000001E-07
DataValue, 2.05, 1.7199199999999997E-07
DataValue, 2.06, 1.73365E-07
DataValue, 2.07, 1.7456499999999998E-07
DataValue, 2.08, 1.7580599999999998E-07
DataValue, 2.09, 1.7718799999999999E-07
DataValue, 2.1, 1.7853399999999998E-07
DataValue, 2.11, 1.79813E-07
DataValue, 2.12, 1.81156E-07
DataValue, 2.13, 1.82448E-07
DataValue, 2.14, 1.83761E-07
DataValue, 2.15, 1.85179E-07
DataValue, 2.16, 1.8661899999999999E-07
DataValue, 2.17, 1.87953E-07
DataValue, 2.18, 1.8925199999999998E-07
DataValue, 2.19, 1.90684E-07
DataValue, 2.2, 1.9214999999999998E-07
DataValue, 2.21, 1.9359599999999998E-07
DataValue, 2.22, 1.9497599999999999E-07
DataValue, 2.23, 1.96387E-07
DataValue, 2.24, 1.97897E-07
DataValue, 2.25, 1.99384E-07
DataValue, 2.26, 2.0083700000000001E-07
DataValue, 2.27, 2.02285E-07
DataValue, 2.28, 2.03745E-07
DataValue, 2.29, 2.0529399999999999E-07
DataValue, 2.3, 2.06766E-07
DataValue, 2.31, 2.08378E-07
DataValue, 2.32, 2.0990099999999997E-07
DataValue, 2.33, 2.11452E-07
DataValue, 2.34, 2.12963E-07
DataValue, 2.35, 2.14522E-07
DataValue, 2.36, 2.1614499999999998E-07
DataValue, 2.37, 2.1774E-07
DataValue, 2.38, 2.1931999999999998E-07
DataValue, 2.39, 2.2088899999999996E-07
DataValue, 2.4, 2.22603E-07
DataValue, 2.41, 2.24235E-07
DataValue, 2.42, 2.2582399999999997E-07
DataValue, 2.43, 2.2751E-07
DataValue, 2.44, 2.2919999999999996E-07
DataValue, 2.45, 2.3090099999999996E-07
DataValue, 2.46, 2.32602E-07
DataValue, 2.47, 2.34227E-07
DataValue, 2.48, 2.36023E-07
DataValue, 2.49, 2.37818E-07
DataValue, 2.5, 2.39578E-07
DataValue, 0, -6.52103E-09
DataValue, 0.01, 1.5388699999999998E-07
DataValue, 0.02, 2.67928E-07
DataValue, 0.03, 3.4822099999999995E-07
DataValue, 0.04, 4.07645E-07
DataValue, 0.05, 4.5138499999999994E-07
DataValue, 0.06, 4.83976E-07
DataValue, 0.07, 5.09122E-07
DataValue, 0.08, 5.29598E-07
DataValue, 0.09, 5.4622999999999994E-07
DataValue, 0.1, 5.5960799999999991E-07
DataValue, 0.11000000000000001, 5.72198E-07
DataValue, 0.12, 5.83903E-07
DataValue, 0.13, 5.93949E-07
DataValue, 0.13999999999999999, 6.0330399999999991E-07
DataValue, 0.15000000000000002, 6.13027E-07
DataValue, 0.16000000000000003, 6.22436E-07
DataValue, 0.17, 6.30793E-07
DataValue, 0.18000000000000002, 6.39834E-07
DataValue, 0.19, 6.48802E-07
DataValue, 0.2, 6.57329E-07
DataValue, 0.21000000000000002, 6.65977E-07
DataValue, 0.22000000000000003, 6.74425E-07
DataValue, 0.22999999999999998, 6.8314499999999994E-07
DataValue, 0.24, 6.91959E-07
DataValue, 0.25, 7.00568E-07
DataValue, 0.26, 7.08893E-07
DataValue, 0.27, 7.1832E-07
DataValue, 0.27999999999999997, 7.26769E-07
DataValue, 0.29, 7.3545999999999994E-07
DataValue, 0.30000000000000004, 7.43986E-07
DataValue, 0.31000000000000005, 7.53047E-07
DataValue, 0.32000000000000006, 7.62104E-07
DataValue, 0.33, 7.7104699999999993E-07
DataValue, 0.34, 7.79966E-07
DataValue, 0.35000000000000003, 7.8907499999999994E-07
DataValue, 0.36000000000000004, 7.98374E-07
DataValue, 0.37000000000000005, 8.07061E-07
DataValue, 0.38, 8.1638499999999993E-07
DataValue, 0.39, 8.25703E-07
DataValue, 0.4, 8.34923E-07
DataValue, 0.41, 8.4420499999999993E-07
DataValue, 0.42000000000000004, 8.53389E-07
DataValue, 0.43, 8.6262799999999993E-07
DataValue, 0.44000000000000006, 8.72267E-07
DataValue, 0.45, 8.8167899999999991E-07
DataValue, 0.45999999999999996, 8.9111999999999984E-07
DataValue, 0.47000000000000003, 9.0069E-07
DataValue, 0.48, 9.1038E-07
DataValue, 0.49000000000000005, 9.19776E-07
DataValue, 0.5, 9.29349E-07
DataValue, 0.51, 9.3960299999999995E-07
DataValue, 0.52, 9.49679E-07
DataValue, 0.53, 9.59196E-07
DataValue, 0.54, 9.69115E-07
DataValue, 0.55, 9.79105E-07
DataValue, 0.55999999999999994, 9.8911599999999979E-07
DataValue, 0.57000000000000006, 9.99317E-07
DataValue, 0.58, 1.009329E-06
DataValue, 0.59000000000000008, 1.0195659999999999E-06
DataValue, 0.60000000000000009, 1.030129E-06
DataValue, 0.61, 1.039877E-06
DataValue, 0.62000000000000011, 1.050397E-06
DataValue, 0.63, 1.060545E-06
DataValue, 0.64000000000000012, 1.0717169999999999E-06
DataValue, 0.65, 1.0823569999999999E-06
DataValue, 0.66, 1.092751E-06
DataValue, 0.67, 1.103356E-06
DataValue, 0.68, 1.1140699999999999E-06
DataValue, 0.69000000000000006, 1.124727E-06
DataValue, 0.70000000000000007, 1.135277E-06
DataValue, 0.71, 1.146948E-06
DataValue, 0.72000000000000008, 1.1591800000000001E-06
DataValue, 0.73, 1.1698799999999999E-06
DataValue, 0.7400000000000001, 1.18119E-06
DataValue, 0.75, 1.19239E-06
DataValue, 0.76, 1.20384E-06
DataValue, 0.77, 1.21529E-06
DataValue, 0.78, 1.2266099999999999E-06
DataValue, 0.79, 1.23761E-06
DataValue, 0.8, 1.24932E-06
DataValue, 0.81, 1.26096E-06
DataValue, 0.82, 1.27261E-06
DataValue, 0.83000000000000007, 1.2842499999999998E-06
DataValue, 0.84000000000000008, 1.29619E-06
DataValue, 0.85000000000000009, 1.30831E-06
DataValue, 0.86, 1.3204899999999998E-06
DataValue, 0.87, 1.33237E-06
DataValue, 0.88000000000000012, 1.34407E-06
DataValue, 0.89000000000000012, 1.35659E-06
DataValue, 0.9, 1.36921E-06
DataValue, 0.91, 1.3815099999999999E-06
DataValue, 0.91999999999999993, 1.3938E-06
DataValue, 0.93000000000000016, 1.40639E-06
DataValue, 0.94000000000000006, 1.4190199999999998E-06
DataValue, 0.95000000000000007, 1.43166E-06
DataValue, 0.96, 1.44416E-06
DataValue, 0.97, 1.4572E-06
DataValue, 0.98000000000000009, 1.4697299999999999E-06
DataValue, 0.9900000000000001, 1.4826799999999999E-06
DataValue, 1, 1.49607E-06
DataValue, 1.01, 1.50901E-06
DataValue, 1.02, 1.52203E-06
DataValue, 1.03, 1.53629E-06
DataValue, 1.04, 1.54936E-06
DataValue, 1.05, 1.5625299999999998E-06
DataValue, 1.06, 1.57627E-06
DataValue, 1.07, 1.58979E-06
DataValue, 1.08, 1.6039E-06
DataValue, 1.09, 1.61722E-06
DataValue, 1.1, 1.63111E-06
DataValue, 1.11, 1.64545E-06
DataValue, 1.12, 1.6599099999999998E-06
DataValue, 1.13, 1.67372E-06
DataValue, 1.14, 1.68845E-06
DataValue, 1.15, 1.7022999999999998E-06
DataValue, 1.16, 1.71662E-06
DataValue, 1.17, 1.73065E-06
DataValue, 1.18, 1.7456799999999997E-06
DataValue, 1.19, 1.75974E-06
DataValue, 1.2, 1.77529E-06
DataValue, 1.21, 1.7903599999999998E-06
DataValue, 1.22, 1.8057E-06
DataValue, 1.23, 1.82044E-06
DataValue, 1.24, 1.83588E-06
