
SetupTitle, NPN1 IC VCE
PrimitiveTest, I/V Sweep
TestParameter, Context.MainFrame, B1500A
TestParameter, Channel.UnitType, SMU, SMU, SMU, SMU
TestParameter, Channel.Unit, SMU1:MP, SMU2:MP, SMU3:MP, GNDU:GND
TestParameter, Channel.IName, IB, IE, IC, Isubst
TestParameter, Channel.VName, VB, VE, VC, Vsubst
TestParameter, Channel.Mode, I, V, V, COMMON
TestParameter, Channel.Func, VAR2, CONST, VAR1, CONST
TestParameter, Channel.Index, 
TestParameter, Channel.Time, 
TestParameter, Measurement.Port.Unit, SMU1:MP, SMU2:MP, SMU3:MP, GNDU:GND
TestParameter, Measurement.Port.SeriesResistor, NONE, NONE, NONE, NONE
TestParameter, Measurement.Port.Filter, ON, ON, ON, ON
TestParameter, Measurement.Primary.Locus, Single
TestParameter, Measurement.Primary.Scale, LINEAR
TestParameter, Measurement.Primary.Start, 0
TestParameter, Measurement.Primary.Stop, 3
TestParameter, Measurement.Primary.Step, 0.01
TestParameter, Measurement.Primary.Compliance, 0.1
TestParameter, Measurement.Primary.PowerCompliance, 0
TestParameter, Measurement.Aborting.Condition, CONTINUE AT ANY
TestParameter, Measurement.PostOutput.Value, START
TestParameter, Measurement.PostOutput.Retention, OFF
TestParameter, Measurement.Secondary.Start, 1E-06
TestParameter, Measurement.Secondary.Count, 6
TestParameter, Measurement.Secondary.Step, 2E-06
TestParameter, Measurement.Secondary.Compliance, 2
TestParameter, Measurement.Secondary.PowerCompliance, 0
TestParameter, Measurement.Bias.Source, 1E-06, 0, 0, 0
TestParameter, Measurement.Bias.Compliance, 2, 0.1, 0.1, 1
TestParameter, Measurement.Monitor.Unit, SMU1:MP, SMU2:MP, SMU3:MP, GNDU:GND
TestParameter, Measurement.Monitor.Adc, HR ADC, HR ADC, HR ADC, HR ADC
TestParameter, Measurement.Monitor.RangingMode, AUTO, LIMITED, LIMITED, LIMITED
TestParameter, Measurement.Monitor.RangeBoundary, , 1nA, 1nA, 1nA
TestParameter, Measurement.Timing.Hold, 0
TestParameter, Measurement.Timing.Delay, 0
TestParameter, Measurement.Adc.HighSpeed.Mode, AUTO
TestParameter, Measurement.Adc.HighSpeed.Coeff, 1
TestParameter, Measurement.Adc.HighResolution.AutoZero, OFF
TestParameter, Measurement.Adc.HighResolution.Mode, AUTO
TestParameter, Measurement.Adc.HighResolution.Coeff, 6
TestParameter, Measurement.WaitTime.Source.Coeff, 1
TestParameter, Measurement.WaitTime.Source.Offset, 0
TestParameter, Measurement.WaitTime.Monitor.Coeff, 1
TestParameter, Measurement.WaitTime.Monitor.Offset, 0
TestParameter, Output.Graph.Enabled, true
TestParameter, Output.Graph.XAxis.Data, VC
TestParameter, Output.Graph.XAxis.Scale, Linear
TestParameter, Output.Graph.XAxis.Left, 0
TestParameter, Output.Graph.XAxis.Right, 3
TestParameter, Output.Graph.YAxis.Data, IC
TestParameter, Output.Graph.YAxis.Scale, Linear
TestParameter, Output.Graph.YAxis.Bottom, 0
TestParameter, Output.Graph.YAxis.Top, 0.01
TestParameter, Output.Graph.YAxis.Group, 
TestParameter, AutoAnalysis.Interpolation, false
TestParameter, AutoAnalysis.Line1.Enabled, false
TestParameter, AutoAnalysis.Line1.Type, 1
TestParameter, AutoAnalysis.Line1.Fix, True
TestParameter, AutoAnalysis.Line1.YAxis, 0
TestParameter, AutoAnalysis.Line1.Point1.Type, 0
TestParameter, AutoAnalysis.Line1.Point1.XY.X, 
TestParameter, AutoAnalysis.Line1.Point1.XY.Y, 
TestParameter, AutoAnalysis.Line1.Point1.Data.Var, 
TestParameter, AutoAnalysis.Line1.Point1.Data.Condition, 
TestParameter, AutoAnalysis.Line1.Point1.Data.Start, false
TestParameter, AutoAnalysis.Line1.Point1.Data.StartVar, 
TestParameter, AutoAnalysis.Line1.Point1.Data.StartCondition, 
TestParameter, AutoAnalysis.Line1.Point2.Type, 0
TestParameter, AutoAnalysis.Line1.Point2.XY.X, 
TestParameter, AutoAnalysis.Line1.Point2.XY.Y, 
TestParameter, AutoAnalysis.Line1.Point2.Data.Var, 
TestParameter, AutoAnalysis.Line1.Point2.Data.Condition, 
TestParameter, AutoAnalysis.Line1.Point2.Data.Start, false
TestParameter, AutoAnalysis.Line1.Point2.Data.StartVar, 
TestParameter, AutoAnalysis.Line1.Point2.Data.StartCondition, 
TestParameter, AutoAnalysis.Line1.GradientExpr, 0
TestParameter, AutoAnalysis.Line2.Enabled, false
TestParameter, AutoAnalysis.Line2.Type, 1
TestParameter, AutoAnalysis.Line2.Fix, True
TestParameter, AutoAnalysis.Line2.YAxis, 0
TestParameter, AutoAnalysis.Line2.Point1.Type, 0
TestParameter, AutoAnalysis.Line2.Point1.XY.X, 
TestParameter, AutoAnalysis.Line2.Point1.XY.Y, 
TestParameter, AutoAnalysis.Line2.Point1.Data.Var, 
TestParameter, AutoAnalysis.Line2.Point1.Data.Condition, 
TestParameter, AutoAnalysis.Line2.Point1.Data.Start, false
TestParameter, AutoAnalysis.Line2.Point1.Data.StartVar, 
TestParameter, AutoAnalysis.Line2.Point1.Data.StartCondition, 
TestParameter, AutoAnalysis.Line2.Point2.Type, 0
TestParameter, AutoAnalysis.Line2.Point2.XY.X, 
TestParameter, AutoAnalysis.Line2.Point2.XY.Y, 
TestParameter, AutoAnalysis.Line2.Point2.Data.Var, 
TestParameter, AutoAnalysis.Line2.Point2.Data.Condition, 
TestParameter, AutoAnalysis.Line2.Point2.Data.Start, false
TestParameter, AutoAnalysis.Line2.Point2.Data.StartVar, 
TestParameter, AutoAnalysis.Line2.Point2.Data.StartCondition, 
TestParameter, AutoAnalysis.Line2.GradientExpr, 0
TestParameter, AutoAnalysis.Marker.Enabled, false
TestParameter, AutoAnalysis.Marker.Data.Var, 
TestParameter, AutoAnalysis.Marker.Data.Condition, 
TestParameter, AutoAnalysis.Marker.Data.Start, false
TestParameter, AutoAnalysis.Marker.Data.StartVar, 
TestParameter, AutoAnalysis.Marker.Data.StartCondition, 
MetaData, TestRecord.EntryPoint, true
MetaData, TestRecord.RecordTime, 10/24/2023 13:46:45
MetaData, TestRecord.TestTarget, step0_2
MetaData, TestRecord.IterationIndex, 1
MetaData, TestRecord.Preservation, true
MetaData, TestRecord.Flag, 
MetaData, TestRecord.Remarks, 
MetaData, TestRecord.LinkKey, 4c11e11c-0f2c-4bbf-a4c7-71f537574d55
Dimension1, 301, 301
Dimension2, 6, 6
DataName, VC, IC
DataValue, 0, -3.6218E-07
DataValue, 0.01, 1.0066E-05
DataValue, 0.02, 2.4512000000000002E-05
DataValue, 0.03, 4.3434000000000005E-05
DataValue, 0.04, 6.8724E-05
DataValue, 0.05, 0.00010108
DataValue, 0.06, 0.00014132
DataValue, 0.07, 0.00018742000000000002
DataValue, 0.08, 0.00023958
DataValue, 0.09, 0.00029456
DataValue, 0.1, 0.00034754
DataValue, 0.11000000000000001, 0.00039778
DataValue, 0.12, 0.00044134
DataValue, 0.13, 0.00047695999999999996
DataValue, 0.13999999999999999, 0.00050640000000000006
DataValue, 0.15000000000000002, 0.00052868
DataValue, 0.16000000000000003, 0.00054550000000000009
DataValue, 0.17, 0.00055784000000000009
DataValue, 0.18000000000000002, 0.00056696
DataValue, 0.19, 0.00057364
DataValue, 0.2, 0.00057874
DataValue, 0.21000000000000002, 0.00058216000000000008
DataValue, 0.22000000000000003, 0.00058488
DataValue, 0.22999999999999998, 0.00058686
DataValue, 0.24, 0.00058862
DataValue, 0.25, 0.00058988
DataValue, 0.26, 0.0005909
DataValue, 0.27, 0.0005917
DataValue, 0.27999999999999997, 0.00059254
DataValue, 0.29, 0.00059328000000000007
DataValue, 0.30000000000000004, 0.0005936
DataValue, 0.31000000000000005, 0.00059432000000000007
DataValue, 0.32000000000000006, 0.00059484
DataValue, 0.33, 0.00059532
DataValue, 0.34, 0.0005957200000000001
DataValue, 0.35000000000000003, 0.0005961
DataValue, 0.36000000000000004, 0.00059666
DataValue, 0.37000000000000005, 0.00059694
DataValue, 0.38, 0.00059726000000000007
DataValue, 0.39, 0.00059764
DataValue, 0.4, 0.00059796
DataValue, 0.41, 0.00059818
DataValue, 0.42000000000000004, 0.00059850000000000007
DataValue, 0.43, 0.00059866
DataValue, 0.44000000000000006, 0.00059912000000000008
DataValue, 0.45, 0.0005992
DataValue, 0.45999999999999996, 0.0005996
DataValue, 0.47000000000000003, 0.00059984
DataValue, 0.48, 0.00060000000000000006
DataValue, 0.49000000000000005, 0.00060016
DataValue, 0.5, 0.00060052000000000011
DataValue, 0.51, 0.00060062
DataValue, 0.52, 0.00060082000000000006
DataValue, 0.53, 0.0006012
DataValue, 0.54, 0.00060122000000000007
DataValue, 0.55, 0.00060148
DataValue, 0.55999999999999994, 0.0006015
DataValue, 0.57000000000000006, 0.00060182000000000009
DataValue, 0.58, 0.00060196
DataValue, 0.59000000000000008, 0.00060218
DataValue, 0.60000000000000009, 0.00060236
DataValue, 0.61, 0.00060238
DataValue, 0.62000000000000011, 0.00060268
DataValue, 0.63, 0.00060282
DataValue, 0.64000000000000012, 0.00060302
DataValue, 0.65, 0.00060312000000000007
DataValue, 0.66, 0.00060322
DataValue, 0.67, 0.00060352
DataValue, 0.68, 0.00060362
DataValue, 0.69000000000000006, 0.00060376000000000006
DataValue, 0.70000000000000007, 0.00060378
DataValue, 0.71, 0.00060402
DataValue, 0.72000000000000008, 0.00060414000000000008
DataValue, 0.73, 0.00060422
DataValue, 0.7400000000000001, 0.00060422
DataValue, 0.75, 0.00060422
DataValue, 0.76, 0.00060462
DataValue, 0.77, 0.00060476000000000008
DataValue, 0.78, 0.00060486
DataValue, 0.79, 0.00060508
DataValue, 0.8, 0.00060512
DataValue, 0.81, 0.00060522000000000006
DataValue, 0.82, 0.0006051
DataValue, 0.83000000000000007, 0.0006053
DataValue, 0.84000000000000008, 0.00060552
DataValue, 0.85000000000000009, 0.0006055
DataValue, 0.86, 0.00060572
DataValue, 0.87, 0.00060592
DataValue, 0.88000000000000012, 0.00060576
DataValue, 0.89000000000000012, 0.00060598
DataValue, 0.9, 0.00060604
DataValue, 0.91, 0.00060606000000000006
DataValue, 0.91999999999999993, 0.00060614
DataValue, 0.93000000000000016, 0.00060626
DataValue, 0.94000000000000006, 0.0006065
DataValue, 0.95000000000000007, 0.00060664
DataValue, 0.96, 0.0006066
DataValue, 0.97, 0.00060666000000000008
DataValue, 0.98000000000000009, 0.00060670000000000006
DataValue, 0.9900000000000001, 0.00060684
DataValue, 1, 0.00060706
DataValue, 1.01, 0.000607
DataValue, 1.02, 0.00060706
DataValue, 1.03, 0.0006071
DataValue, 1.04, 0.00060714
DataValue, 1.05, 0.00060730000000000007
DataValue, 1.06, 0.00060738
DataValue, 1.07, 0.00060742
DataValue, 1.08, 0.0006074600000000001
DataValue, 1.09, 0.00060766
DataValue, 1.1, 0.00060764
DataValue, 1.11, 0.0006078
DataValue, 1.12, 0.00060778
DataValue, 1.13, 0.0006078800000000001
DataValue, 1.14, 0.00060794
DataValue, 1.15, 0.00060792000000000007
DataValue, 1.16, 0.00060810000000000009
DataValue, 1.17, 0.00060810000000000009
DataValue, 1.18, 0.0006082
DataValue, 1.19, 0.00060826
DataValue, 1.2, 0.0006082
DataValue, 1.21, 0.00060824
DataValue, 1.22, 0.0006084
DataValue, 1.23, 0.0006085
DataValue, 1.24, 0.00060844
DataValue, 1.25, 0.00060828
DataValue, 1.26, 0.00060862
DataValue, 1.27, 0.00060876000000000007
DataValue, 1.28, 0.00060868
DataValue, 1.29, 0.00060862
DataValue, 1.3, 0.00060882
DataValue, 1.31, 0.00060896
DataValue, 1.32, 0.00060878
DataValue, 1.33, 0.00060908
DataValue, 1.34, 0.00060896
DataValue, 1.35, 0.0006091
DataValue, 1.36, 0.00060926
DataValue, 1.37, 0.00060918000000000007
DataValue, 1.38, 0.0006092
DataValue, 1.39, 0.00060918000000000007
DataValue, 1.4, 0.00060946
DataValue, 1.41, 0.00060926
DataValue, 1.42, 0.00060924
DataValue, 1.43, 0.00060952
DataValue, 1.44, 0.00060942000000000006
DataValue, 1.45, 0.00060952
DataValue, 1.46, 0.00060958
DataValue, 1.47, 0.00060974000000000011
DataValue, 1.48, 0.00060974000000000011
DataValue, 1.49, 0.00060976
DataValue, 1.5, 0.00060972
DataValue, 1.51, 0.0006099
DataValue, 1.52, 0.00060992
DataValue, 1.53, 0.00060998000000000009
DataValue, 1.54, 0.00061004
DataValue, 1.55, 0.00061004
DataValue, 1.56, 0.00061004
DataValue, 1.57, 0.00061018
DataValue, 1.58, 0.00061034
DataValue, 1.59, 0.00061046
DataValue, 1.6, 0.00061034
DataValue, 1.61, 0.00061058000000000011
DataValue, 1.62, 0.00061046
DataValue, 1.63, 0.0006106
DataValue, 1.64, 0.00061042
DataValue, 1.65, 0.00061066000000000007
DataValue, 1.66, 0.0006106
DataValue, 1.67, 0.00061062000000000009
DataValue, 1.68, 0.00061066000000000007
DataValue, 1.69, 0.00061086000000000007
DataValue, 1.7, 0.00061082
DataValue, 1.71, 0.00061108000000000006
DataValue, 1.72, 0.00061108000000000006
DataValue, 1.73, 0.00061128000000000007
DataValue, 1.74, 0.0006112
DataValue, 1.75, 0.00061144
DataValue, 1.76, 0.00061122
DataValue, 1.77, 0.00061134
DataValue, 1.78, 0.00061146000000000009
DataValue, 1.79, 0.00061164
DataValue, 1.8, 0.00061156
DataValue, 1.81, 0.00061164
DataValue, 1.82, 0.00061182
DataValue, 1.83, 0.00061178
DataValue, 1.84, 0.00061188000000000008
DataValue, 1.85, 0.00061184000000000011
DataValue, 1.86, 0.00061212000000000007
DataValue, 1.87, 0.00061222
DataValue, 1.88, 0.00061238
DataValue, 1.89, 0.00061238
DataValue, 1.9, 0.00061254000000000007
DataValue, 1.91, 0.0006126800000000001
DataValue, 1.92, 0.0006129
DataValue, 1.93, 0.00061298000000000006
DataValue, 1.94, 0.0006129
DataValue, 1.95, 0.00061336000000000008
DataValue, 1.96, 0.00061326
DataValue, 1.97, 0.00061340000000000006
DataValue, 1.98, 0.0006135200000000001
DataValue, 1.99, 0.00061361999999999994
DataValue, 2, 0.00061408
DataValue, 2.01, 0.00061402000000000006
DataValue, 2.02, 0.00061436
DataValue, 2.03, 0.00061462000000000008
DataValue, 2.04, 0.00061474
DataValue, 2.05, 0.00061478
DataValue, 2.06, 0.00061492
DataValue, 2.07, 0.00061514
DataValue, 2.08, 0.00061542000000000009
DataValue, 2.09, 0.00061568
DataValue, 2.1, 0.00061596
DataValue, 2.11, 0.00061616
DataValue, 2.12, 0.0006164
DataValue, 2.13, 0.00061662
DataValue, 2.14, 0.00061706000000000011
DataValue, 2.15, 0.00061704
DataValue, 2.16, 0.00061746
DataValue, 2.17, 0.00061780000000000005
DataValue, 2.18, 0.00061806
DataValue, 2.19, 0.00061842
DataValue, 2.2, 0.00061878000000000009
DataValue, 2.21, 0.00061888
DataValue, 2.22, 0.00061966000000000007
DataValue, 2.23, 0.00061986000000000007
DataValue, 2.24, 0.00062030000000000006
DataValue, 2.25, 0.00062066
DataValue, 2.26, 0.00062118
DataValue, 2.27, 0.00062164
DataValue, 2.28, 0.0006218
DataValue, 2.29, 0.00062256000000000008
DataValue, 2.3, 0.00062306
DataValue, 2.31, 0.00062342000000000007
DataValue, 2.32, 0.00062404000000000008
DataValue, 2.33, 0.00062454
DataValue, 2.34, 0.00062514
DataValue, 2.35, 0.00062558
DataValue, 2.36, 0.0006263
DataValue, 2.37, 0.00062688
DataValue, 2.38, 0.00062752
DataValue, 2.39, 0.00062814
DataValue, 2.4, 0.00062878
DataValue, 2.41, 0.0006296400000000001
DataValue, 2.42, 0.00063
DataValue, 2.43, 0.00063092
DataValue, 2.44, 0.00063160000000000006
DataValue, 2.45, 0.00063262000000000008
DataValue, 2.46, 0.00063328
DataValue, 2.47, 0.00063410000000000007
DataValue, 2.48, 0.00063484
DataValue, 2.49, 0.00063594
DataValue, 2.5, 0.00063698
DataValue, 2.51, 0.00063776
DataValue, 2.52, 0.00063878
DataValue, 2.53, 0.00063984
DataValue, 2.54, 0.00064102
DataValue, 2.55, 0.00064202000000000009
DataValue, 2.56, 0.00064338
DataValue, 2.57, 0.00064450000000000011
DataValue, 2.58, 0.00064566
DataValue, 2.59, 0.00064684
DataValue, 2.6, 0.000648
DataValue, 2.61, 0.0006494
DataValue, 2.62, 0.00065056
DataValue, 2.63, 0.00065224
DataValue, 2.64, 0.00065352
DataValue, 2.65, 0.00065504
DataValue, 2.66, 0.00065656
DataValue, 2.67, 0.00065812
DataValue, 2.68, 0.00065972
DataValue, 2.69, 0.00066146000000000011
DataValue, 2.7, 0.0006631
DataValue, 2.71, 0.00066482
DataValue, 2.72, 0.00066658000000000006
DataValue, 2.73, 0.0006685
DataValue, 2.74, 0.00067056
DataValue, 2.75, 0.00067256
DataValue, 2.76, 0.00067448
DataValue, 2.77, 0.00067672
DataValue, 2.78, 0.00067888000000000009
DataValue, 2.79, 0.00068120000000000008
DataValue, 2.8, 0.0006834
DataValue, 2.81, 0.0006857
DataValue, 2.82, 0.00068828
DataValue, 2.83, 0.00069078
DataValue, 2.84, 0.00069366
DataValue, 2.85, 0.00069614
DataValue, 2.86, 0.0006989
DataValue, 2.87, 0.000702
DataValue, 2.88, 0.00070476
DataValue, 2.89, 0.00070792
DataValue, 2.9, 0.00071112000000000009
DataValue, 2.91, 0.00071422
DataValue, 2.92, 0.00071756
DataValue, 2.93, 0.00072100000000000007
DataValue, 2.94, 0.00072444
DataValue, 2.95, 0.0007281
DataValue, 2.96, 0.0007318
DataValue, 2.97, 0.00073598
DataValue, 2.98, 0.00073998
DataValue, 2.99, 0.00074402000000000008
DataValue, 3, 0.00074820000000000008
DataValue, 0, -1.5317E-06
DataValue, 0.01, 2.7548E-05
DataValue, 0.02, 6.6786000000000007E-05
DataValue, 0.03, 0.00011814
DataValue, 0.04, 0.00018578
DataValue, 0.05, 0.00027118000000000004
DataValue, 0.06, 0.00037516
DataValue, 0.07, 0.00049464
DataValue, 0.08, 0.00062952000000000006
DataValue, 0.09, 0.00077210000000000006
DataValue, 0.1, 0.00091186000000000012
DataValue, 0.11000000000000001, 0.00104604
DataValue, 0.12, 0.0011677999999999999
DataValue, 0.13, 0.0012696
DataValue, 0.13999999999999999, 0.0013546
DataValue, 0.15000000000000002, 0.0014222
DataValue, 0.16000000000000003, 0.001476
DataValue, 0.17, 0.001516
DataValue, 0.18000000000000002, 0.0015456
DataValue, 0.19, 0.0015698
DataValue, 0.2, 0.0015854
DataValue, 0.21000000000000002, 0.0015974
DataValue, 0.22000000000000003, 0.0016072
DataValue, 0.22999999999999998, 0.0016144
DataValue, 0.24, 0.0016202
DataValue, 0.25, 0.0016246000000000001
DataValue, 0.26, 0.0016284000000000001
DataValue, 0.27, 0.0016316
DataValue, 0.27999999999999997, 0.0016338
DataValue, 0.29, 0.0016356
DataValue, 0.30000000000000004, 0.001638
DataValue, 0.31000000000000005, 0.0016397999999999999
DataValue, 0.32000000000000006, 0.0016414
DataValue, 0.33, 0.0016428
DataValue, 0.34, 0.0016446000000000002
DataValue, 0.35000000000000003, 0.0016455999999999999
DataValue, 0.36000000000000004, 0.0016472000000000001
DataValue, 0.37000000000000005, 0.0016478
DataValue, 0.38, 0.0016488000000000002
DataValue, 0.39, 0.00165
DataValue, 0.4, 0.0016508
DataValue, 0.41, 0.001652
DataValue, 0.42000000000000004, 0.0016528
DataValue, 0.43, 0.0016534
DataValue, 0.44000000000000006, 0.0016546000000000002
DataValue, 0.45, 0.0016546000000000002
DataValue, 0.45999999999999996, 0.0016556
DataValue, 0.47000000000000003, 0.0016566
DataValue, 0.48, 0.0016572
DataValue, 0.49000000000000005, 0.0016581999999999999
DataValue, 0.5, 0.001658
DataValue, 0.51, 0.0016592
DataValue, 0.52, 0.0016602
DataValue, 0.53, 0.0016604
DataValue, 0.54, 0.0016616
DataValue, 0.55, 0.0016619999999999999
DataValue, 0.55999999999999994, 0.0016618
DataValue, 0.57000000000000006, 0.0016626000000000002
DataValue, 0.58, 0.0016634
DataValue, 0.59000000000000008, 0.0016636
DataValue, 0.60000000000000009, 0.0016638
DataValue, 0.61, 0.0016644000000000001
DataValue, 0.62000000000000011, 0.0016652000000000001
DataValue, 0.63, 0.0016654
DataValue, 0.64000000000000012, 0.0016656
DataValue, 0.65, 0.0016661999999999998
DataValue, 0.66, 0.0016661999999999998
DataValue, 0.67, 0.0016672
DataValue, 0.68, 0.0016676
DataValue, 0.69000000000000006, 0.0016681999999999999
DataValue, 0.70000000000000007, 0.0016681999999999999
DataValue, 0.71, 0.0016684000000000002
DataValue, 0.72000000000000008, 0.0016688
DataValue, 0.73, 0.0016694000000000001
DataValue, 0.7400000000000001, 0.0016694000000000001
DataValue, 0.75, 0.0016696
DataValue, 0.76, 0.0016702
DataValue, 0.77, 0.0016708
DataValue, 0.78, 0.0016710000000000002
DataValue, 0.79, 0.0016712
DataValue, 0.8, 0.0016712
DataValue, 0.81, 0.0016722
DataValue, 0.82, 0.0016719999999999999
DataValue, 0.83000000000000007, 0.0016718
DataValue, 0.84000000000000008, 0.0016726000000000002
DataValue, 0.85000000000000009, 0.0016726000000000002
DataValue, 0.86, 0.0016734
DataValue, 0.87, 0.0016734
DataValue, 0.88000000000000012, 0.0016736
DataValue, 0.89000000000000012, 0.001674
DataValue, 0.9, 0.0016744000000000002
DataValue, 0.91, 0.0016746
DataValue, 0.91999999999999993, 0.001675
DataValue, 0.93000000000000016, 0.001675
DataValue, 0.94000000000000006, 0.001675
DataValue, 0.95000000000000007, 0.0016754
DataValue, 0.96, 0.0016754
DataValue, 0.97, 0.001676
DataValue, 0.98000000000000009, 0.0016756
DataValue, 0.9900000000000001, 0.0016761999999999999
DataValue, 1, 0.0016766
