
SetupTitle, NPN1 IC VCE
PrimitiveTest, I/V Sweep
TestParameter, Context.MainFrame, B1500A
TestParameter, Channel.UnitType, SMU, SMU, SMU, SMU
TestParameter, Channel.Unit, SMU1:MP, SMU2:MP, SMU3:MP, GNDU:GND
TestParameter, Channel.IName, IB, IE, IC, Isubst
TestParameter, Channel.VName, VB, VE, VC, Vsubst
TestParameter, Channel.Mode, I, V, V, COMMON
TestParameter, Channel.Func, VAR2, CONST, VAR1, CONST
TestParameter, Channel.Index, 
TestParameter, Channel.Time, 
TestParameter, Measurement.Port.Unit, SMU1:MP, SMU2:MP, SMU3:MP, GNDU:GND
TestParameter, Measurement.Port.SeriesResistor, NONE, NONE, NONE, NONE
TestParameter, Measurement.Port.Filter, ON, ON, ON, ON
TestParameter, Measurement.Primary.Locus, Single
TestParameter, Measurement.Primary.Scale, LINEAR
TestParameter, Measurement.Primary.Start, 0
TestParameter, Measurement.Primary.Stop, 3
TestParameter, Measurement.Primary.Step, 0.01
TestParameter, Measurement.Primary.Compliance, 0.1
TestParameter, Measurement.Primary.PowerCompliance, 0
TestParameter, Measurement.Aborting.Condition, CONTINUE AT ANY
TestParameter, Measurement.PostOutput.Value, START
TestParameter, Measurement.PostOutput.Retention, OFF
TestParameter, Measurement.Secondary.Start, 1E-06
TestParameter, Measurement.Secondary.Count, 6
TestParameter, Measurement.Secondary.Step, 2E-06
TestParameter, Measurement.Secondary.Compliance, 2
TestParameter, Measurement.Secondary.PowerCompliance, 0
TestParameter, Measurement.Bias.Source, 1E-06, 0, 0, 0
TestParameter, Measurement.Bias.Compliance, 2, 0.1, 0.1, 1
TestParameter, Measurement.Monitor.Unit, SMU1:MP, SMU2:MP, SMU3:MP, GNDU:GND
TestParameter, Measurement.Monitor.Adc, HR ADC, HR ADC, HR ADC, HR ADC
TestParameter, Measurement.Monitor.RangingMode, AUTO, LIMITED, LIMITED, LIMITED
TestParameter, Measurement.Monitor.RangeBoundary, , 1nA, 1nA, 1nA
TestParameter, Measurement.Timing.Hold, 0
TestParameter, Measurement.Timing.Delay, 0
TestParameter, Measurement.Adc.HighSpeed.Mode, AUTO
TestParameter, Measurement.Adc.HighSpeed.Coeff, 1
TestParameter, Measurement.Adc.HighResolution.AutoZero, OFF
TestParameter, Measurement.Adc.HighResolution.Mode, AUTO
TestParameter, Measurement.Adc.HighResolution.Coeff, 6
TestParameter, Measurement.WaitTime.Source.Coeff, 1
TestParameter, Measurement.WaitTime.Source.Offset, 0
TestParameter, Measurement.WaitTime.Monitor.Coeff, 1
TestParameter, Measurement.WaitTime.Monitor.Offset, 0
TestParameter, Output.Graph.Enabled, true
TestParameter, Output.Graph.XAxis.Data, VC
TestParameter, Output.Graph.XAxis.Scale, Linear
TestParameter, Output.Graph.XAxis.Left, 0
TestParameter, Output.Graph.XAxis.Right, 3
TestParameter, Output.Graph.YAxis.Data, IC
TestParameter, Output.Graph.YAxis.Scale, Linear
TestParameter, Output.Graph.YAxis.Bottom, 0
TestParameter, Output.Graph.YAxis.Top, 0.01
TestParameter, Output.Graph.YAxis.Group, 
TestParameter, AutoAnalysis.Interpolation, false
TestParameter, AutoAnalysis.Line1.Enabled, false
TestParameter, AutoAnalysis.Line1.Type, 1
TestParameter, AutoAnalysis.Line1.Fix, True
TestParameter, AutoAnalysis.Line1.YAxis, 0
TestParameter, AutoAnalysis.Line1.Point1.Type, 0
TestParameter, AutoAnalysis.Line1.Point1.XY.X, 
TestParameter, AutoAnalysis.Line1.Point1.XY.Y, 
TestParameter, AutoAnalysis.Line1.Point1.Data.Var, 
TestParameter, AutoAnalysis.Line1.Point1.Data.Condition, 
TestParameter, AutoAnalysis.Line1.Point1.Data.Start, false
TestParameter, AutoAnalysis.Line1.Point1.Data.StartVar, 
TestParameter, AutoAnalysis.Line1.Point1.Data.StartCondition, 
TestParameter, AutoAnalysis.Line1.Point2.Type, 0
TestParameter, AutoAnalysis.Line1.Point2.XY.X, 
TestParameter, AutoAnalysis.Line1.Point2.XY.Y, 
TestParameter, AutoAnalysis.Line1.Point2.Data.Var, 
TestParameter, AutoAnalysis.Line1.Point2.Data.Condition, 
TestParameter, AutoAnalysis.Line1.Point2.Data.Start, false
TestParameter, AutoAnalysis.Line1.Point2.Data.StartVar, 
TestParameter, AutoAnalysis.Line1.Point2.Data.StartCondition, 
TestParameter, AutoAnalysis.Line1.GradientExpr, 0
TestParameter, AutoAnalysis.Line2.Enabled, false
TestParameter, AutoAnalysis.Line2.Type, 1
TestParameter, AutoAnalysis.Line2.Fix, True
TestParameter, AutoAnalysis.Line2.YAxis, 0
TestParameter, AutoAnalysis.Line2.Point1.Type, 0
TestParameter, AutoAnalysis.Line2.Point1.XY.X, 
TestParameter, AutoAnalysis.Line2.Point1.XY.Y, 
TestParameter, AutoAnalysis.Line2.Point1.Data.Var, 
TestParameter, AutoAnalysis.Line2.Point1.Data.Condition, 
TestParameter, AutoAnalysis.Line2.Point1.Data.Start, false
TestParameter, AutoAnalysis.Line2.Point1.Data.StartVar, 
TestParameter, AutoAnalysis.Line2.Point1.Data.StartCondition, 
TestParameter, AutoAnalysis.Line2.Point2.Type, 0
TestParameter, AutoAnalysis.Line2.Point2.XY.X, 
TestParameter, AutoAnalysis.Line2.Point2.XY.Y, 
TestParameter, AutoAnalysis.Line2.Point2.Data.Var, 
TestParameter, AutoAnalysis.Line2.Point2.Data.Condition, 
TestParameter, AutoAnalysis.Line2.Point2.Data.Start, false
TestParameter, AutoAnalysis.Line2.Point2.Data.StartVar, 
TestParameter, AutoAnalysis.Line2.Point2.Data.StartCondition, 
TestParameter, AutoAnalysis.Line2.GradientExpr, 0
TestParameter, AutoAnalysis.Marker.Enabled, false
TestParameter, AutoAnalysis.Marker.Data.Var, 
TestParameter, AutoAnalysis.Marker.Data.Condition, 
TestParameter, AutoAnalysis.Marker.Data.Start, false
TestParameter, AutoAnalysis.Marker.Data.StartVar, 
TestParameter, AutoAnalysis.Marker.Data.StartCondition, 
MetaData, TestRecord.EntryPoint, true
MetaData, TestRecord.RecordTime, 11/01/2023 09:07:29
MetaData, TestRecord.TestTarget, step1_3
MetaData, TestRecord.IterationIndex, 1
MetaData, TestRecord.Preservation, true
MetaData, TestRecord.Flag, 
MetaData, TestRecord.Remarks, 
MetaData, TestRecord.LinkKey, 6e4d9508-652a-4d11-8b6f-dd16ca63d205
Dimension1, 301, 301
Dimension2, 6, 6
DataName, VC, IC
DataValue, 0, -3.6636E-07
DataValue, 0.01, 8.0692E-06
DataValue, 0.02, 1.9786E-05
DataValue, 0.03, 3.5228E-05
DataValue, 0.04, 5.6014E-05
DataValue, 0.05, 8.2840000000000013E-05
DataValue, 0.06, 0.00011499999999999999
DataValue, 0.07, 0.00015582
DataValue, 0.08, 0.00020093999999999998
DataValue, 0.09, 0.00024906
DataValue, 0.1, 0.00029652
DataValue, 0.11000000000000001, 0.00034228000000000004
DataValue, 0.12, 0.00038298000000000005
DataValue, 0.13, 0.00041668000000000006
DataValue, 0.13999999999999999, 0.00044444
DataValue, 0.15000000000000002, 0.00046664000000000005
DataValue, 0.16000000000000003, 0.00048343999999999997
DataValue, 0.17, 0.00049586
DataValue, 0.18000000000000002, 0.00050544
DataValue, 0.19, 0.0005126000000000001
DataValue, 0.2, 0.00051790000000000007
DataValue, 0.21000000000000002, 0.00052202
DataValue, 0.22000000000000003, 0.00052516
DataValue, 0.22999999999999998, 0.00052776
DataValue, 0.24, 0.00052974
DataValue, 0.25, 0.00053144
DataValue, 0.26, 0.00053278000000000006
DataValue, 0.27, 0.00053418
DataValue, 0.27999999999999997, 0.00053516
DataValue, 0.29, 0.00053630000000000008
DataValue, 0.30000000000000004, 0.00053718000000000006
DataValue, 0.31000000000000005, 0.00053808
DataValue, 0.32000000000000006, 0.00053886000000000006
DataValue, 0.33, 0.00053952
DataValue, 0.34, 0.00054018
DataValue, 0.35000000000000003, 0.00054074000000000006
DataValue, 0.36000000000000004, 0.0005415
DataValue, 0.37000000000000005, 0.00054216
DataValue, 0.38, 0.00054260000000000007
DataValue, 0.39, 0.00054314
DataValue, 0.4, 0.00054352
DataValue, 0.41, 0.00054422
DataValue, 0.42000000000000004, 0.00054478
DataValue, 0.43, 0.00054518
DataValue, 0.44000000000000006, 0.0005456
DataValue, 0.45, 0.00054604
DataValue, 0.45999999999999996, 0.00054656000000000008
DataValue, 0.47000000000000003, 0.00054672
DataValue, 0.48, 0.00054734
DataValue, 0.49000000000000005, 0.00054786000000000006
DataValue, 0.5, 0.00054816
DataValue, 0.51, 0.00054838
DataValue, 0.52, 0.00054854
DataValue, 0.53, 0.00054912000000000006
DataValue, 0.54, 0.00054954000000000005
DataValue, 0.55, 0.00054986
DataValue, 0.55999999999999994, 0.00055038
DataValue, 0.57000000000000006, 0.0005505
DataValue, 0.58, 0.00055088
DataValue, 0.59000000000000008, 0.00055102
DataValue, 0.60000000000000009, 0.00055126
DataValue, 0.61, 0.00055174000000000011
DataValue, 0.62000000000000011, 0.0005521
DataValue, 0.63, 0.00055214
DataValue, 0.64000000000000012, 0.00055242000000000008
DataValue, 0.65, 0.00055278
DataValue, 0.66, 0.00055298
DataValue, 0.67, 0.00055332
DataValue, 0.68, 0.00055342
DataValue, 0.69000000000000006, 0.00055356
DataValue, 0.70000000000000007, 0.000554
DataValue, 0.71, 0.00055424
DataValue, 0.72000000000000008, 0.00055426
DataValue, 0.73, 0.00055458
DataValue, 0.7400000000000001, 0.00055492
DataValue, 0.75, 0.00055512
DataValue, 0.76, 0.00055516
DataValue, 0.77, 0.0005553200000000001
DataValue, 0.78, 0.00055552
DataValue, 0.79, 0.00055588
DataValue, 0.8, 0.000556
DataValue, 0.81, 0.00055618
DataValue, 0.82, 0.00055634
DataValue, 0.83000000000000007, 0.00055656
DataValue, 0.84000000000000008, 0.0005568
DataValue, 0.85000000000000009, 0.0005569
DataValue, 0.86, 0.00055708
DataValue, 0.87, 0.00055732
DataValue, 0.88000000000000012, 0.00055744
DataValue, 0.89000000000000012, 0.00055758
DataValue, 0.9, 0.00055766000000000008
DataValue, 0.91, 0.00055798
DataValue, 0.91999999999999993, 0.000558
DataValue, 0.93000000000000016, 0.0005582
DataValue, 0.94000000000000006, 0.00055842
DataValue, 0.95000000000000007, 0.00055834
DataValue, 0.96, 0.00055872000000000007
DataValue, 0.97, 0.0005588
DataValue, 0.98000000000000009, 0.0005588
DataValue, 0.9900000000000001, 0.00055906
DataValue, 1, 0.00055910000000000009
DataValue, 1.01, 0.00055910000000000009
DataValue, 1.02, 0.0005594
DataValue, 1.03, 0.00055966
DataValue, 1.04, 0.00055968
DataValue, 1.05, 0.00055978000000000006
DataValue, 1.06, 0.00055998000000000007
DataValue, 1.07, 0.00055996
DataValue, 1.08, 0.00056020000000000006
DataValue, 1.09, 0.00056024
DataValue, 1.1, 0.00056040000000000007
DataValue, 1.11, 0.00056042
DataValue, 1.12, 0.00056066
DataValue, 1.13, 0.00056076
DataValue, 1.14, 0.0005608
DataValue, 1.15, 0.00056082000000000007
DataValue, 1.16, 0.00056084
DataValue, 1.17, 0.00056114
DataValue, 1.18, 0.00056114
DataValue, 1.19, 0.00056132
DataValue, 1.2, 0.00056156
DataValue, 1.21, 0.0005616
DataValue, 1.22, 0.00056168
DataValue, 1.23, 0.00056178
DataValue, 1.24, 0.00056186
DataValue, 1.25, 0.00056204000000000009
DataValue, 1.26, 0.00056214
DataValue, 1.27, 0.00056218
DataValue, 1.28, 0.00056234
DataValue, 1.29, 0.00056236
DataValue, 1.3, 0.00056252000000000006
DataValue, 1.31, 0.0005626400000000001
DataValue, 1.32, 0.00056258
DataValue, 1.33, 0.00056268000000000008
DataValue, 1.34, 0.00056274
DataValue, 1.35, 0.00056286
DataValue, 1.36, 0.00056294000000000005
DataValue, 1.37, 0.00056304
DataValue, 1.38, 0.00056316
DataValue, 1.39, 0.00056314000000000006
DataValue, 1.4, 0.00056334000000000006
DataValue, 1.41, 0.00056328
DataValue, 1.42, 0.00056346
DataValue, 1.43, 0.0005637
DataValue, 1.44, 0.0005635
DataValue, 1.45, 0.00056382
DataValue, 1.46, 0.0005636
DataValue, 1.47, 0.00056388
DataValue, 1.48, 0.00056384
DataValue, 1.49, 0.00056372
DataValue, 1.5, 0.00056406
DataValue, 1.51, 0.00056394000000000008
DataValue, 1.52, 0.00056426
DataValue, 1.53, 0.00056436000000000008
DataValue, 1.54, 0.00056428
DataValue, 1.55, 0.00056441999999999994
DataValue, 1.56, 0.0005643200000000001
DataValue, 1.57, 0.00056452
DataValue, 1.58, 0.00056452
DataValue, 1.59, 0.00056468
DataValue, 1.6, 0.00056466
DataValue, 1.61, 0.00056472
DataValue, 1.62, 0.00056498
DataValue, 1.63, 0.00056492000000000011
DataValue, 1.64, 0.00056506
DataValue, 1.65, 0.00056528
DataValue, 1.66, 0.00056522
DataValue, 1.67, 0.00056528
DataValue, 1.68, 0.0005654
DataValue, 1.69, 0.00056536
DataValue, 1.7, 0.00056554
DataValue, 1.71, 0.00056552
DataValue, 1.72, 0.00056562000000000008
DataValue, 1.73, 0.0005659
DataValue, 1.74, 0.00056592
DataValue, 1.75, 0.0005659
DataValue, 1.76, 0.00056606
DataValue, 1.77, 0.00056626000000000007
DataValue, 1.78, 0.00056628000000000006
DataValue, 1.79, 0.0005662
DataValue, 1.8, 0.00056644
DataValue, 1.81, 0.0005664
DataValue, 1.82, 0.00056668000000000007
DataValue, 1.83, 0.00056678
DataValue, 1.84, 0.00056674
DataValue, 1.85, 0.00056692
DataValue, 1.86, 0.00056708
DataValue, 1.87, 0.0005672
DataValue, 1.88, 0.00056722
DataValue, 1.89, 0.00056726
DataValue, 1.9, 0.00056744000000000011
DataValue, 1.91, 0.00056762
DataValue, 1.92, 0.00056772000000000007
DataValue, 1.93, 0.00056790000000000009
DataValue, 1.94, 0.00056806
DataValue, 1.95, 0.00056822
DataValue, 1.96, 0.00056836000000000007
DataValue, 1.97, 0.0005684
DataValue, 1.98, 0.00056870000000000011
DataValue, 1.99, 0.00056896000000000008
DataValue, 2, 0.00056886
DataValue, 2.01, 0.00056904
DataValue, 2.02, 0.00056932
DataValue, 2.03, 0.00056952
DataValue, 2.04, 0.00056956
DataValue, 2.05, 0.00056980000000000008
DataValue, 2.06, 0.0005701800000000001
DataValue, 2.07, 0.0005701800000000001
DataValue, 2.08, 0.00057038
DataValue, 2.09, 0.00057064000000000008
DataValue, 2.1, 0.00057098000000000012
DataValue, 2.11, 0.00057094
DataValue, 2.12, 0.00057138
DataValue, 2.13, 0.00057172000000000006
DataValue, 2.14, 0.00057198
DataValue, 2.15, 0.00057210000000000008
DataValue, 2.16, 0.00057246
DataValue, 2.17, 0.0005726
DataValue, 2.18, 0.00057302
DataValue, 2.19, 0.00057314
DataValue, 2.2, 0.0005735400000000001
DataValue, 2.21, 0.00057392
DataValue, 2.22, 0.00057432
DataValue, 2.23, 0.00057488
DataValue, 2.24, 0.00057496
DataValue, 2.25, 0.0005752
DataValue, 2.26, 0.00057568000000000007
DataValue, 2.27, 0.00057610000000000007
DataValue, 2.28, 0.00057666000000000011
DataValue, 2.29, 0.00057692
DataValue, 2.3, 0.00057758000000000006
DataValue, 2.31, 0.0005779200000000001
DataValue, 2.32, 0.00057842000000000006
DataValue, 2.33, 0.0005787
DataValue, 2.34, 0.00057946000000000007
DataValue, 2.35, 0.00057994
DataValue, 2.36, 0.00058042
DataValue, 2.37, 0.0005806600000000001
DataValue, 2.38, 0.00058144
DataValue, 2.39, 0.00058212
DataValue, 2.4, 0.00058278
DataValue, 2.41, 0.00058344
DataValue, 2.42, 0.00058396
DataValue, 2.43, 0.00058464
DataValue, 2.44, 0.00058544
DataValue, 2.45, 0.0005862
DataValue, 2.46, 0.00058686
DataValue, 2.47, 0.00058774
DataValue, 2.48, 0.0005884000000000001
DataValue, 2.49, 0.00058906000000000008
DataValue, 2.5, 0.00059006
DataValue, 2.51, 0.000591
DataValue, 2.52, 0.00059184
DataValue, 2.53, 0.00059272
DataValue, 2.54, 0.00059368
DataValue, 2.55, 0.00059462
DataValue, 2.56, 0.00059542
DataValue, 2.57, 0.0005965
DataValue, 2.58, 0.00059774
DataValue, 2.59, 0.00059870000000000008
DataValue, 2.6, 0.00059992
DataValue, 2.61, 0.00060116
DataValue, 2.62, 0.00060236
DataValue, 2.63, 0.00060330000000000008
DataValue, 2.64, 0.00060476000000000008
DataValue, 2.65, 0.00060606000000000006
DataValue, 2.66, 0.00060734
DataValue, 2.67, 0.00060862
DataValue, 2.68, 0.00061034
DataValue, 2.69, 0.00061182
DataValue, 2.7, 0.00061334
DataValue, 2.71, 0.0006148
DataValue, 2.72, 0.00061646
DataValue, 2.73, 0.00061812
DataValue, 2.74, 0.00061992
DataValue, 2.75, 0.00062162
DataValue, 2.76, 0.0006235
DataValue, 2.77, 0.00062530000000000007
DataValue, 2.78, 0.00062720000000000007
DataValue, 2.79, 0.00062936
DataValue, 2.8, 0.00063124
DataValue, 2.81, 0.00063336
DataValue, 2.82, 0.00063548
DataValue, 2.83, 0.00063794
DataValue, 2.84, 0.00063986
DataValue, 2.85, 0.00064252
DataValue, 2.86, 0.0006451
DataValue, 2.87, 0.00064744
DataValue, 2.88, 0.0006501
DataValue, 2.89, 0.00065264
DataValue, 2.9, 0.0006554000000000001
DataValue, 2.91, 0.00065812
DataValue, 2.92, 0.00066096
DataValue, 2.93, 0.00066442
DataValue, 2.94, 0.00066726
DataValue, 2.95, 0.00067042
DataValue, 2.96, 0.00067366000000000008
DataValue, 2.97, 0.00067692
DataValue, 2.98, 0.00068066
DataValue, 2.99, 0.0006843
DataValue, 3, 0.00068772000000000006
DataValue, 0, -1.3941E-06
DataValue, 0.01, 2.2296E-05
DataValue, 0.02, 5.4516000000000005E-05
DataValue, 0.03, 9.6458E-05
DataValue, 0.04, 0.00015292
DataValue, 0.05, 0.00022458000000000002
DataValue, 0.06, 0.00031302
DataValue, 0.07, 0.00041566000000000004
DataValue, 0.08, 0.00053326
DataValue, 0.09, 0.0006592
DataValue, 0.1, 0.00078322
DataValue, 0.11000000000000001, 0.00090578000000000013
DataValue, 0.12, 0.0010156000000000002
DataValue, 0.13, 0.00111232
DataValue, 0.13999999999999999, 0.0011934
DataValue, 0.15000000000000002, 0.001259
DataValue, 0.16000000000000003, 0.0013106
DataValue, 0.17, 0.0013495999999999998
DataValue, 0.18000000000000002, 0.0013802
DataValue, 0.19, 0.0014042
DataValue, 0.2, 0.0014214
DataValue, 0.21000000000000002, 0.0014352
DataValue, 0.22000000000000003, 0.0014464
DataValue, 0.22999999999999998, 0.0014542
DataValue, 0.24, 0.0014618
DataValue, 0.25, 0.0014668
DataValue, 0.26, 0.001472
DataValue, 0.27, 0.0014763999999999999
DataValue, 0.27999999999999997, 0.0014794
DataValue, 0.29, 0.0014830000000000002
DataValue, 0.30000000000000004, 0.0014858
DataValue, 0.31000000000000005, 0.0014884
DataValue, 0.32000000000000006, 0.0014912
DataValue, 0.33, 0.0014934000000000002
DataValue, 0.34, 0.001496
DataValue, 0.35000000000000003, 0.0014974
DataValue, 0.36000000000000004, 0.0014996
DataValue, 0.37000000000000005, 0.0015018
DataValue, 0.38, 0.0015032000000000001
DataValue, 0.39, 0.0015052000000000002
DataValue, 0.4, 0.0015064
DataValue, 0.41, 0.001508
DataValue, 0.42000000000000004, 0.0015096
DataValue, 0.43, 0.001511
DataValue, 0.44000000000000006, 0.0015126
DataValue, 0.45, 0.001514
DataValue, 0.45999999999999996, 0.0015149999999999999
DataValue, 0.47000000000000003, 0.001516
DataValue, 0.48, 0.001517
DataValue, 0.49000000000000005, 0.0015186
DataValue, 0.5, 0.0015192
DataValue, 0.51, 0.0015204
DataValue, 0.52, 0.0015220000000000001
DataValue, 0.53, 0.001523
DataValue, 0.54, 0.001524
DataValue, 0.55, 0.0015246
DataValue, 0.55999999999999994, 0.0015258000000000001
DataValue, 0.57000000000000006, 0.0015268
DataValue, 0.58, 0.0015276
DataValue, 0.59000000000000008, 0.0015282
DataValue, 0.60000000000000009, 0.001529
DataValue, 0.61, 0.0015298
DataValue, 0.62000000000000011, 0.0015304000000000001
DataValue, 0.63, 0.0015314
DataValue, 0.64000000000000012, 0.0015322
DataValue, 0.65, 0.0015329999999999999
DataValue, 0.66, 0.0015336000000000002
DataValue, 0.67, 0.0015342
DataValue, 0.68, 0.0015354000000000001
DataValue, 0.69000000000000006, 0.0015352
DataValue, 0.70000000000000007, 0.0015364
DataValue, 0.71, 0.0015368
DataValue, 0.72000000000000008, 0.0015371999999999999
DataValue, 0.73, 0.0015384
DataValue, 0.7400000000000001, 0.0015386
DataValue, 0.75, 0.0015394000000000002
DataValue, 0.76, 0.0015398
DataValue, 0.77, 0.0015406
DataValue, 0.78, 0.0015406
DataValue, 0.79, 0.0015414
DataValue, 0.8, 0.001542
DataValue, 0.81, 0.0015426
DataValue, 0.82, 0.0015428
DataValue, 0.83000000000000007, 0.0015434000000000001
DataValue, 0.84000000000000008, 0.001544
DataValue, 0.85000000000000009, 0.0015444
DataValue, 0.86, 0.0015454000000000002
DataValue, 0.87, 0.0015458000000000002
DataValue, 0.88000000000000012, 0.0015458000000000002
DataValue, 0.89000000000000012, 0.001546
DataValue, 0.9, 0.0015471999999999999
DataValue, 0.91, 0.0015474000000000002
DataValue, 0.91999999999999993, 0.0015478
DataValue, 0.93000000000000016, 0.0015478
DataValue, 0.94000000000000006, 0.0015484000000000001
DataValue, 0.95000000000000007, 0.0015492
DataValue, 0.96, 0.0015488
DataValue, 0.97, 0.0015498
DataValue, 0.98000000000000009, 0.0015498
DataValue, 0.9900000000000001, 0.0015502
DataValue, 1, 0.0015506
DataValue, 1.01, 0.0015509999999999999
DataValue, 1.02, 0.0015509999999999999
DataValue, 1.03, 0.0015522
