
SetupTitle, NPN2 IC VCE
PrimitiveTest, I/V Sweep
TestParameter, Context.MainFrame, B1500A
TestParameter, Channel.UnitType, SMU, SMU, SMU, SMU
TestParameter, Channel.Unit, SMU1:MP, SMU2:MP, SMU3:MP, GNDU:GND
TestParameter, Channel.IName, IB, IE, IC, Isubst
TestParameter, Channel.VName, VB, VE, VC, Vsubst
TestParameter, Channel.Mode, I, V, V, COMMON
TestParameter, Channel.Func, VAR2, CONST, VAR1, CONST
TestParameter, Channel.Index, 
TestParameter, Channel.Time, 
TestParameter, Measurement.Port.Unit, SMU1:MP, SMU2:MP, SMU3:MP, GNDU:GND
TestParameter, Measurement.Port.SeriesResistor, NONE, NONE, NONE, NONE
TestParameter, Measurement.Port.Filter, ON, ON, ON, ON
TestParameter, Measurement.Primary.Locus, Single
TestParameter, Measurement.Primary.Scale, LINEAR
TestParameter, Measurement.Primary.Start, 0
TestParameter, Measurement.Primary.Stop, 3
TestParameter, Measurement.Primary.Step, 0.01
TestParameter, Measurement.Primary.Compliance, 0.1
TestParameter, Measurement.Primary.PowerCompliance, 0
TestParameter, Measurement.Aborting.Condition, CONTINUE AT ANY
TestParameter, Measurement.PostOutput.Value, START
TestParameter, Measurement.PostOutput.Retention, OFF
TestParameter, Measurement.Secondary.Start, 1E-06
TestParameter, Measurement.Secondary.Count, 6
TestParameter, Measurement.Secondary.Step, 2E-06
TestParameter, Measurement.Secondary.Compliance, 2
TestParameter, Measurement.Secondary.PowerCompliance, 0
TestParameter, Measurement.Bias.Source, 1E-06, 0, 0, 0
TestParameter, Measurement.Bias.Compliance, 2, 0.1, 0.1, 1
TestParameter, Measurement.Monitor.Unit, SMU1:MP, SMU2:MP, SMU3:MP, GNDU:GND
TestParameter, Measurement.Monitor.Adc, HR ADC, HR ADC, HR ADC, HR ADC
TestParameter, Measurement.Monitor.RangingMode, AUTO, LIMITED, LIMITED, LIMITED
TestParameter, Measurement.Monitor.RangeBoundary, , 1nA, 1nA, 1nA
TestParameter, Measurement.Timing.Hold, 0
TestParameter, Measurement.Timing.Delay, 0
TestParameter, Measurement.Adc.HighSpeed.Mode, AUTO
TestParameter, Measurement.Adc.HighSpeed.Coeff, 1
TestParameter, Measurement.Adc.HighResolution.AutoZero, OFF
TestParameter, Measurement.Adc.HighResolution.Mode, AUTO
TestParameter, Measurement.Adc.HighResolution.Coeff, 6
TestParameter, Measurement.WaitTime.Source.Coeff, 1
TestParameter, Measurement.WaitTime.Source.Offset, 0
TestParameter, Measurement.WaitTime.Monitor.Coeff, 1
TestParameter, Measurement.WaitTime.Monitor.Offset, 0
TestParameter, Output.Graph.Enabled, true
TestParameter, Output.Graph.XAxis.Data, VC
TestParameter, Output.Graph.XAxis.Scale, Linear
TestParameter, Output.Graph.XAxis.Left, 0
TestParameter, Output.Graph.XAxis.Right, 3
TestParameter, Output.Graph.YAxis.Data, IC
TestParameter, Output.Graph.YAxis.Scale, Linear
TestParameter, Output.Graph.YAxis.Bottom, 0
TestParameter, Output.Graph.YAxis.Top, 0.01
TestParameter, Output.Graph.YAxis.Group, 
TestParameter, AutoAnalysis.Interpolation, false
TestParameter, AutoAnalysis.Line1.Enabled, false
TestParameter, AutoAnalysis.Line1.Type, 1
TestParameter, AutoAnalysis.Line1.Fix, True
TestParameter, AutoAnalysis.Line1.YAxis, 0
TestParameter, AutoAnalysis.Line1.Point1.Type, 0
TestParameter, AutoAnalysis.Line1.Point1.XY.X, 
TestParameter, AutoAnalysis.Line1.Point1.XY.Y, 
TestParameter, AutoAnalysis.Line1.Point1.Data.Var, 
TestParameter, AutoAnalysis.Line1.Point1.Data.Condition, 
TestParameter, AutoAnalysis.Line1.Point1.Data.Start, false
TestParameter, AutoAnalysis.Line1.Point1.Data.StartVar, 
TestParameter, AutoAnalysis.Line1.Point1.Data.StartCondition, 
TestParameter, AutoAnalysis.Line1.Point2.Type, 0
TestParameter, AutoAnalysis.Line1.Point2.XY.X, 
TestParameter, AutoAnalysis.Line1.Point2.XY.Y, 
TestParameter, AutoAnalysis.Line1.Point2.Data.Var, 
TestParameter, AutoAnalysis.Line1.Point2.Data.Condition, 
TestParameter, AutoAnalysis.Line1.Point2.Data.Start, false
TestParameter, AutoAnalysis.Line1.Point2.Data.StartVar, 
TestParameter, AutoAnalysis.Line1.Point2.Data.StartCondition, 
TestParameter, AutoAnalysis.Line1.GradientExpr, 0
TestParameter, AutoAnalysis.Line2.Enabled, false
TestParameter, AutoAnalysis.Line2.Type, 1
TestParameter, AutoAnalysis.Line2.Fix, True
TestParameter, AutoAnalysis.Line2.YAxis, 0
TestParameter, AutoAnalysis.Line2.Point1.Type, 0
TestParameter, AutoAnalysis.Line2.Point1.XY.X, 
TestParameter, AutoAnalysis.Line2.Point1.XY.Y, 
TestParameter, AutoAnalysis.Line2.Point1.Data.Var, 
TestParameter, AutoAnalysis.Line2.Point1.Data.Condition, 
TestParameter, AutoAnalysis.Line2.Point1.Data.Start, false
TestParameter, AutoAnalysis.Line2.Point1.Data.StartVar, 
TestParameter, AutoAnalysis.Line2.Point1.Data.StartCondition, 
TestParameter, AutoAnalysis.Line2.Point2.Type, 0
TestParameter, AutoAnalysis.Line2.Point2.XY.X, 
TestParameter, AutoAnalysis.Line2.Point2.XY.Y, 
TestParameter, AutoAnalysis.Line2.Point2.Data.Var, 
TestParameter, AutoAnalysis.Line2.Point2.Data.Condition, 
TestParameter, AutoAnalysis.Line2.Point2.Data.Start, false
TestParameter, AutoAnalysis.Line2.Point2.Data.StartVar, 
TestParameter, AutoAnalysis.Line2.Point2.Data.StartCondition, 
TestParameter, AutoAnalysis.Line2.GradientExpr, 0
TestParameter, AutoAnalysis.Marker.Enabled, false
TestParameter, AutoAnalysis.Marker.Data.Var, 
TestParameter, AutoAnalysis.Marker.Data.Condition, 
TestParameter, AutoAnalysis.Marker.Data.Start, false
TestParameter, AutoAnalysis.Marker.Data.StartVar, 
TestParameter, AutoAnalysis.Marker.Data.StartCondition, 
MetaData, TestRecord.EntryPoint, true
MetaData, TestRecord.RecordTime, 11/01/2023 09:41:39
MetaData, TestRecord.TestTarget, step1_5
MetaData, TestRecord.IterationIndex, 1
MetaData, TestRecord.Preservation, true
MetaData, TestRecord.Flag, 
MetaData, TestRecord.Remarks, 
MetaData, TestRecord.LinkKey, bf83354f-50ef-429d-a0b8-288e7d57555b
Dimension1, 301, 301
Dimension2, 6, 6
DataName, VC, IC
DataValue, 0, -3.6652E-07
DataValue, 0.01, 8.044499999999999E-06
DataValue, 0.02, 1.9704E-05
DataValue, 0.03, 3.5072000000000006E-05
DataValue, 0.04, 5.5862E-05
DataValue, 0.05, 8.2582000000000017E-05
DataValue, 0.06, 0.00011499999999999999
DataValue, 0.07, 0.00015554
DataValue, 0.08, 0.0002006
DataValue, 0.09, 0.00024906
DataValue, 0.1, 0.00029632000000000004
DataValue, 0.11000000000000001, 0.00034192
DataValue, 0.12, 0.00038298000000000005
DataValue, 0.13, 0.00041643999999999996
DataValue, 0.13999999999999999, 0.00044464
DataValue, 0.15000000000000002, 0.00046612000000000004
DataValue, 0.16000000000000003, 0.00048301999999999997
DataValue, 0.17, 0.00049534
DataValue, 0.18000000000000002, 0.00050468000000000008
DataValue, 0.19, 0.00051172
DataValue, 0.2, 0.00051696
DataValue, 0.21000000000000002, 0.00052092
DataValue, 0.22000000000000003, 0.00052398
DataValue, 0.22999999999999998, 0.00052634
DataValue, 0.24, 0.00052824
DataValue, 0.25, 0.00052984000000000006
DataValue, 0.26, 0.00053106
DataValue, 0.27, 0.00053216000000000005
DataValue, 0.27999999999999997, 0.00053310000000000011
DataValue, 0.29, 0.00053422000000000007
DataValue, 0.30000000000000004, 0.00053484
DataValue, 0.31000000000000005, 0.00053562000000000011
DataValue, 0.32000000000000006, 0.00053624
DataValue, 0.33, 0.00053692000000000008
DataValue, 0.34, 0.0005375
DataValue, 0.35000000000000003, 0.0005382
DataValue, 0.36000000000000004, 0.00053860000000000008
DataValue, 0.37000000000000005, 0.00053924000000000008
DataValue, 0.38, 0.00053964
DataValue, 0.39, 0.00054008000000000007
DataValue, 0.4, 0.00054068
DataValue, 0.41, 0.00054094
DataValue, 0.42000000000000004, 0.00054128
DataValue, 0.43, 0.00054178
DataValue, 0.44000000000000006, 0.00054218000000000007
DataValue, 0.45, 0.00054238000000000008
DataValue, 0.45999999999999996, 0.00054298000000000009
DataValue, 0.47000000000000003, 0.00054332
DataValue, 0.48, 0.00054366000000000006
DataValue, 0.49000000000000005, 0.0005440000000000001
DataValue, 0.5, 0.00054432
DataValue, 0.51, 0.00054434
DataValue, 0.52, 0.0005448
DataValue, 0.53, 0.00054514
DataValue, 0.54, 0.00054552
DataValue, 0.55, 0.00054562
DataValue, 0.55999999999999994, 0.00054598000000000005
DataValue, 0.57000000000000006, 0.00054612
DataValue, 0.58, 0.0005465200000000001
DataValue, 0.59000000000000008, 0.00054658
DataValue, 0.60000000000000009, 0.00054702000000000006
DataValue, 0.61, 0.0005473600000000001
DataValue, 0.62000000000000011, 0.00054746
DataValue, 0.63, 0.00054772
DataValue, 0.64000000000000012, 0.00054796
DataValue, 0.65, 0.00054816
DataValue, 0.66, 0.00054836
DataValue, 0.67, 0.00054856
DataValue, 0.68, 0.0005486
DataValue, 0.69000000000000006, 0.00054894
DataValue, 0.70000000000000007, 0.0005490400000000001
DataValue, 0.71, 0.00054916
DataValue, 0.72000000000000008, 0.00054944
DataValue, 0.73, 0.00054964000000000011
DataValue, 0.7400000000000001, 0.00054986
DataValue, 0.75, 0.00054984
DataValue, 0.76, 0.00055008
DataValue, 0.77, 0.0005503
DataValue, 0.78, 0.0005507
DataValue, 0.79, 0.00055064
DataValue, 0.8, 0.0005507
DataValue, 0.81, 0.00055088
DataValue, 0.82, 0.00055100000000000006
DataValue, 0.83000000000000007, 0.00055128
DataValue, 0.84000000000000008, 0.00055126
DataValue, 0.85000000000000009, 0.00055140000000000007
DataValue, 0.86, 0.00055162000000000006
DataValue, 0.87, 0.00055172
DataValue, 0.88000000000000012, 0.00055212
DataValue, 0.89000000000000012, 0.00055208
DataValue, 0.9, 0.00055216000000000011
DataValue, 0.91, 0.00055234
DataValue, 0.91999999999999993, 0.00055242000000000008
DataValue, 0.93000000000000016, 0.00055254
DataValue, 0.94000000000000006, 0.00055268
DataValue, 0.95000000000000007, 0.00055292
DataValue, 0.96, 0.00055298
DataValue, 0.97, 0.00055304000000000009
DataValue, 0.98000000000000009, 0.00055324
DataValue, 0.9900000000000001, 0.00055312
DataValue, 1, 0.00055358
DataValue, 1.01, 0.00055332
DataValue, 1.02, 0.00055384
DataValue, 1.03, 0.0005536400000000001
DataValue, 1.04, 0.0005538
DataValue, 1.05, 0.00055410000000000008
DataValue, 1.06, 0.00055388000000000008
DataValue, 1.07, 0.00055424
DataValue, 1.08, 0.00055424
DataValue, 1.09, 0.00055434000000000006
DataValue, 1.1, 0.0005544
DataValue, 1.11, 0.0005544800000000001
DataValue, 1.12, 0.00055472000000000008
DataValue, 1.13, 0.00055468
DataValue, 1.14, 0.00055488
DataValue, 1.15, 0.00055504
DataValue, 1.16, 0.00055494000000000008
DataValue, 1.17, 0.00055516
DataValue, 1.18, 0.00055516
DataValue, 1.19, 0.00055519999999999994
DataValue, 1.2, 0.0005553
DataValue, 1.21, 0.00055534
DataValue, 1.22, 0.0005555
DataValue, 1.23, 0.00055576
DataValue, 1.24, 0.00055556000000000008
DataValue, 1.25, 0.00055566
DataValue, 1.26, 0.00055582000000000006
DataValue, 1.27, 0.00055594
DataValue, 1.28, 0.00055596
DataValue, 1.29, 0.00055620000000000008
DataValue, 1.3, 0.00055614
DataValue, 1.31, 0.0005561
DataValue, 1.32, 0.00055614
DataValue, 1.33, 0.00055638
DataValue, 1.34, 0.00055644000000000006
DataValue, 1.35, 0.0005565
DataValue, 1.36, 0.00055644000000000006
DataValue, 1.37, 0.00055674
DataValue, 1.38, 0.0005567
DataValue, 1.39, 0.00055672
DataValue, 1.4, 0.0005567
DataValue, 1.41, 0.00055686000000000006
DataValue, 1.42, 0.00055704000000000007
DataValue, 1.43, 0.00055716
DataValue, 1.44, 0.00055718
DataValue, 1.45, 0.0005572
DataValue, 1.46, 0.00055724000000000008
DataValue, 1.47, 0.0005573
DataValue, 1.48, 0.00055748
DataValue, 1.49, 0.00055734
DataValue, 1.5, 0.00055752
DataValue, 1.51, 0.00055752
DataValue, 1.52, 0.00055764
DataValue, 1.53, 0.0005578
DataValue, 1.54, 0.00055770000000000006
DataValue, 1.55, 0.00055794
DataValue, 1.56, 0.00055786
DataValue, 1.57, 0.00055794
DataValue, 1.58, 0.00055794
DataValue, 1.59, 0.00055806
DataValue, 1.6, 0.00055808000000000008
DataValue, 1.61, 0.00055826000000000009
DataValue, 1.62, 0.00055816
DataValue, 1.63, 0.0005584
DataValue, 1.64, 0.00055846
DataValue, 1.65, 0.0005586
DataValue, 1.66, 0.00055850000000000008
DataValue, 1.67, 0.00055856
DataValue, 1.68, 0.00055858
DataValue, 1.69, 0.00055872000000000007
DataValue, 1.7, 0.00055894000000000007
DataValue, 1.71, 0.00055894000000000007
DataValue, 1.72, 0.00055894000000000007
DataValue, 1.73, 0.00055894000000000007
DataValue, 1.74, 0.00055910000000000009
DataValue, 1.75, 0.00055916
DataValue, 1.76, 0.00055934
DataValue, 1.77, 0.00055922
DataValue, 1.78, 0.00055944
DataValue, 1.79, 0.00055936000000000007
DataValue, 1.8, 0.00055956000000000007
DataValue, 1.81, 0.00055976
DataValue, 1.82, 0.00055970000000000011
DataValue, 1.83, 0.00055984
DataValue, 1.84, 0.0005599
DataValue, 1.85, 0.00056
DataValue, 1.86, 0.0005601
DataValue, 1.87, 0.00056014
DataValue, 1.88, 0.00056038
DataValue, 1.89, 0.00056038
DataValue, 1.9, 0.00056064
DataValue, 1.91, 0.00056068
DataValue, 1.92, 0.00056086
DataValue, 1.93, 0.00056086
DataValue, 1.94, 0.0005609600000000001
DataValue, 1.95, 0.00056114
DataValue, 1.96, 0.00056120000000000009
DataValue, 1.97, 0.00056154
DataValue, 1.98, 0.00056154
DataValue, 1.99, 0.00056172
DataValue, 2, 0.00056188000000000006
DataValue, 2.01, 0.00056212
DataValue, 2.02, 0.00056208000000000007
DataValue, 2.03, 0.0005624
DataValue, 2.04, 0.00056236
DataValue, 2.05, 0.00056268000000000008
DataValue, 2.06, 0.00056276
DataValue, 2.07, 0.00056310000000000008
DataValue, 2.08, 0.00056334000000000006
DataValue, 2.09, 0.00056344
DataValue, 2.1, 0.00056372
DataValue, 2.11, 0.0005639000000000001
DataValue, 2.12, 0.00056408
DataValue, 2.13, 0.0005643
DataValue, 2.14, 0.00056466
DataValue, 2.15, 0.00056478000000000008
DataValue, 2.16, 0.00056500000000000007
DataValue, 2.17, 0.00056528
DataValue, 2.18, 0.00056552
DataValue, 2.19, 0.00056608000000000006
DataValue, 2.2, 0.00056634
DataValue, 2.21, 0.00056650000000000005
DataValue, 2.22, 0.00056698
DataValue, 2.23, 0.00056722
DataValue, 2.24, 0.00056752000000000007
DataValue, 2.25, 0.00056786000000000011
DataValue, 2.26, 0.00056824
DataValue, 2.27, 0.00056876
DataValue, 2.28, 0.00056886
DataValue, 2.29, 0.00056944
DataValue, 2.3, 0.00057004000000000006
DataValue, 2.31, 0.00057042000000000008
DataValue, 2.32, 0.0005707
DataValue, 2.33, 0.00057116
DataValue, 2.34, 0.0005718
DataValue, 2.35, 0.00057215999999999994
DataValue, 2.36, 0.00057272
DataValue, 2.37, 0.00057328
DataValue, 2.38, 0.00057392
DataValue, 2.39, 0.00057436
DataValue, 2.4, 0.00057496
DataValue, 2.41, 0.00057552
DataValue, 2.42, 0.0005762
DataValue, 2.43, 0.00057696
DataValue, 2.44, 0.00057738
DataValue, 2.45, 0.00057820000000000007
DataValue, 2.46, 0.00057878
DataValue, 2.47, 0.00057964000000000008
DataValue, 2.48, 0.00058030000000000006
DataValue, 2.49, 0.00058118
DataValue, 2.5, 0.00058188000000000011
DataValue, 2.51, 0.00058278
DataValue, 2.52, 0.0005834
DataValue, 2.53, 0.0005845
DataValue, 2.54, 0.00058550000000000008
DataValue, 2.55, 0.00058638000000000006
DataValue, 2.56, 0.0005873
DataValue, 2.57, 0.0005883
DataValue, 2.58, 0.00058944
DataValue, 2.59, 0.00059024
DataValue, 2.6, 0.0005914
DataValue, 2.61, 0.00059278000000000011
DataValue, 2.62, 0.00059366000000000009
DataValue, 2.63, 0.00059484
DataValue, 2.64, 0.00059604
DataValue, 2.65, 0.00059746
DataValue, 2.66, 0.0005988
DataValue, 2.67, 0.00059998
DataValue, 2.68, 0.00060146
DataValue, 2.69, 0.0006028
DataValue, 2.7, 0.0006042
DataValue, 2.71, 0.0006058
DataValue, 2.72, 0.0006074
DataValue, 2.73, 0.00060890000000000011
DataValue, 2.74, 0.00061052
DataValue, 2.75, 0.00061210000000000008
DataValue, 2.76, 0.00061384
DataValue, 2.77, 0.00061588000000000007
DataValue, 2.78, 0.00061782
DataValue, 2.79, 0.0006195
DataValue, 2.8, 0.0006215
DataValue, 2.81, 0.0006235800000000001
DataValue, 2.82, 0.00062562
DataValue, 2.83, 0.0006277
DataValue, 2.84, 0.00062992000000000007
DataValue, 2.85, 0.00063226
DataValue, 2.86, 0.00063444
DataValue, 2.87, 0.00063702
DataValue, 2.88, 0.00063946
DataValue, 2.89, 0.000642
DataValue, 2.9, 0.00064466
DataValue, 2.91, 0.00064738
DataValue, 2.92, 0.00065016
DataValue, 2.93, 0.0006532
DataValue, 2.94, 0.00065634
DataValue, 2.95, 0.000659
DataValue, 2.96, 0.00066236
DataValue, 2.97, 0.00066552
DataValue, 2.98, 0.00066872
DataValue, 2.99, 0.00067252
DataValue, 3, 0.00067604
DataValue, 0, -1.4025E-06
DataValue, 0.01, 2.2276E-05
DataValue, 0.02, 5.4394E-05
DataValue, 0.03, 9.6352E-05
DataValue, 0.04, 0.00015282000000000002
DataValue, 0.05, 0.00022456
DataValue, 0.06, 0.00031324
DataValue, 0.07, 0.00041574
DataValue, 0.08, 0.00053388
DataValue, 0.09, 0.00066018
DataValue, 0.1, 0.00078572000000000006
DataValue, 0.11000000000000001, 0.00090764
DataValue, 0.12, 0.00101956
DataValue, 0.13, 0.00111418
DataValue, 0.13999999999999999, 0.001195
DataValue, 0.15000000000000002, 0.0012618
DataValue, 0.16000000000000003, 0.001313
DataValue, 0.17, 0.0013508
DataValue, 0.18000000000000002, 0.0013816
DataValue, 0.19, 0.0014052000000000001
DataValue, 0.2, 0.0014218
DataValue, 0.21000000000000002, 0.0014352
DataValue, 0.22000000000000003, 0.0014458
DataValue, 0.22999999999999998, 0.0014534
DataValue, 0.24, 0.0014604
DataValue, 0.25, 0.0014656
DataValue, 0.26, 0.00147
DataValue, 0.27, 0.0014734000000000001
DataValue, 0.27999999999999997, 0.0014768
DataValue, 0.29, 0.0014798
DataValue, 0.30000000000000004, 0.0014822
DataValue, 0.31000000000000005, 0.0014847999999999999
DataValue, 0.32000000000000006, 0.0014872000000000002
DataValue, 0.33, 0.0014888
DataValue, 0.34, 0.0014904
DataValue, 0.35000000000000003, 0.0014927999999999999
DataValue, 0.36000000000000004, 0.001494
DataValue, 0.37000000000000005, 0.0014962
DataValue, 0.38, 0.0014974
DataValue, 0.39, 0.0014984
DataValue, 0.4, 0.0015002
DataValue, 0.41, 0.0015018
DataValue, 0.42000000000000004, 0.0015027999999999999
DataValue, 0.43, 0.0015038
DataValue, 0.44000000000000006, 0.0015052000000000002
DataValue, 0.45, 0.0015058
DataValue, 0.45999999999999996, 0.0015072000000000002
DataValue, 0.47000000000000003, 0.001508
DataValue, 0.48, 0.001509
DataValue, 0.49000000000000005, 0.0015102
DataValue, 0.5, 0.001511
DataValue, 0.51, 0.0015118
DataValue, 0.52, 0.001513
DataValue, 0.53, 0.0015142
DataValue, 0.54, 0.0015149999999999999
DataValue, 0.55, 0.0015158
DataValue, 0.55999999999999994, 0.0015156000000000002
DataValue, 0.57000000000000006, 0.001517
DataValue, 0.58, 0.0015176
DataValue, 0.59000000000000008, 0.0015186
DataValue, 0.60000000000000009, 0.0015192
DataValue, 0.61, 0.0015196
DataValue, 0.62000000000000011, 0.0015202
DataValue, 0.63, 0.0015218
DataValue, 0.64000000000000012, 0.0015218
DataValue, 0.65, 0.0015226
DataValue, 0.66, 0.0015236000000000002
DataValue, 0.67, 0.0015232000000000002
DataValue, 0.68, 0.001524
DataValue, 0.69000000000000006, 0.0015248
DataValue, 0.70000000000000007, 0.0015256
DataValue, 0.71, 0.0015254
DataValue, 0.72000000000000008, 0.0015264
DataValue, 0.73, 0.0015271999999999998
DataValue, 0.7400000000000001, 0.0015276
DataValue, 0.75, 0.001528
DataValue, 0.76, 0.0015282
DataValue, 0.77, 0.0015284
DataValue, 0.78, 0.0015291999999999999
DataValue, 0.79, 0.0015298
DataValue, 0.8, 0.0015298
DataValue, 0.81, 0.0015306
DataValue, 0.82, 0.0015308
DataValue, 0.83000000000000007, 0.0015312
DataValue, 0.84000000000000008, 0.0015316000000000002
DataValue, 0.85000000000000009, 0.0015322
DataValue, 0.86, 0.0015324
DataValue, 0.87, 0.0015329999999999999
DataValue, 0.88000000000000012, 0.0015334
DataValue, 0.89000000000000012, 0.0015342
DataValue, 0.9, 0.0015336000000000002
DataValue, 0.91, 0.0015346
DataValue, 0.91999999999999993, 0.0015346
DataValue, 0.93000000000000016, 0.0015344
DataValue, 0.94000000000000006, 0.001535
DataValue, 0.95000000000000007, 0.0015358000000000001
DataValue, 0.96, 0.0015362
DataValue, 0.97, 0.0015362
DataValue, 0.98000000000000009, 0.0015364
DataValue, 0.9900000000000001, 0.001537
DataValue, 1, 0.0015374000000000002
DataValue, 1.01, 0.001537
