
SetupTitle, C IV leak
PrimitiveTest, I/V Sweep
TestParameter, Context.MainFrame, B1500A
TestParameter, Channel.UnitType, SMU, SMU, SMU
TestParameter, Channel.Unit, SMU1:MP, SMU2:MP, GNDU:GND
TestParameter, Channel.IName, Ica, Icb, IEE
TestParameter, Channel.VName, Vca, Vcb, VEE
TestParameter, Channel.Mode, V, COMMON, COMMON
TestParameter, Channel.Func, VAR1, CONST, CONST
TestParameter, Channel.Index, 
TestParameter, Channel.Time, 
TestParameter, Measurement.Port.Unit, SMU1:MP, SMU2:MP, GNDU:GND
TestParameter, Measurement.Port.SeriesResistor, NONE, NONE, NONE
TestParameter, Measurement.Port.Filter, ON, ON, ON
TestParameter, Measurement.Primary.Locus, Single
TestParameter, Measurement.Primary.Scale, LINEAR
TestParameter, Measurement.Primary.Start, 0
TestParameter, Measurement.Primary.Stop, 2
TestParameter, Measurement.Primary.Step, 0.05
TestParameter, Measurement.Primary.Compliance, 0.003
TestParameter, Measurement.Primary.PowerCompliance, 0
TestParameter, Measurement.Aborting.Condition, CONTINUE AT ANY
TestParameter, Measurement.PostOutput.Value, START
TestParameter, Measurement.PostOutput.Retention, OFF
TestParameter, Measurement.Bias.Source, 0, 0, 0
TestParameter, Measurement.Bias.Compliance, 0.003, 0.1, 1
TestParameter, Measurement.Monitor.Unit, SMU1:MP, SMU2:MP, GNDU:GND
TestParameter, Measurement.Monitor.Adc, HR ADC, HR ADC, HR ADC
TestParameter, Measurement.Monitor.RangingMode, LIMITED, LIMITED, LIMITED
TestParameter, Measurement.Monitor.RangeBoundary, 1nA, 1nA, 1nA
TestParameter, Measurement.Monitor.RangeRating, BY FULL RANGE, BY FULL RANGE, BY FULL RANGE
TestParameter, Measurement.Monitor.RangeRatingCoeff, 50, 50, 50
TestParameter, Measurement.Timing.Hold, 0.01
TestParameter, Measurement.Timing.Delay, 0.001
TestParameter, Measurement.Adc.HighSpeed.Mode, AUTO
TestParameter, Measurement.Adc.HighSpeed.Coeff, 1
TestParameter, Measurement.Adc.HighResolution.AutoZero, OFF
TestParameter, Measurement.Adc.HighResolution.Mode, PLC
TestParameter, Measurement.Adc.HighResolution.Coeff, 10
TestParameter, Measurement.WaitTime.Source.Coeff, 1
TestParameter, Measurement.WaitTime.Source.Offset, 0
TestParameter, Measurement.WaitTime.Monitor.Coeff, 1
TestParameter, Measurement.WaitTime.Monitor.Offset, 0
TestParameter, Function.User.Name, R
TestParameter, Function.User.Unit, ohm
TestParameter, Function.User.Definition, Vca/Ica
TestParameter, Output.Graph.Enabled, true
TestParameter, Output.Graph.XAxis.Data, Vca
TestParameter, Output.Graph.XAxis.Scale, Linear
TestParameter, Output.Graph.XAxis.Left, 0
TestParameter, Output.Graph.XAxis.Right, 2
TestParameter, Output.Graph.YAxis.Data, Ica
TestParameter, Output.Graph.YAxis.Scale, Linear
TestParameter, Output.Graph.YAxis.Bottom, 0
TestParameter, Output.Graph.YAxis.Top, 1E-11
TestParameter, Output.Graph.YAxis.Group, 
TestParameter, AutoAnalysis.Interpolation, false
TestParameter, AutoAnalysis.Line1.Enabled, false
TestParameter, AutoAnalysis.Line1.Type, 2
TestParameter, AutoAnalysis.Line1.Fix, False
TestParameter, AutoAnalysis.Line1.YAxis, 0
TestParameter, AutoAnalysis.Line1.Point1.Type, 0
TestParameter, AutoAnalysis.Line1.Point1.XY.X, 
TestParameter, AutoAnalysis.Line1.Point1.XY.Y, 
TestParameter, AutoAnalysis.Line1.Point1.Data.Var, 
TestParameter, AutoAnalysis.Line1.Point1.Data.Condition, 
TestParameter, AutoAnalysis.Line1.Point1.Data.Start, false
TestParameter, AutoAnalysis.Line1.Point1.Data.StartVar, 
TestParameter, AutoAnalysis.Line1.Point1.Data.StartCondition, 
TestParameter, AutoAnalysis.Line1.Point2.Type, 0
TestParameter, AutoAnalysis.Line1.Point2.XY.X, 
TestParameter, AutoAnalysis.Line1.Point2.XY.Y, 
TestParameter, AutoAnalysis.Line1.Point2.Data.Var, 
TestParameter, AutoAnalysis.Line1.Point2.Data.Condition, 
TestParameter, AutoAnalysis.Line1.Point2.Data.Start, false
TestParameter, AutoAnalysis.Line1.Point2.Data.StartVar, 
TestParameter, AutoAnalysis.Line1.Point2.Data.StartCondition, 
TestParameter, AutoAnalysis.Line1.GradientExpr, 0
TestParameter, AutoAnalysis.Line2.Enabled, false
TestParameter, AutoAnalysis.Line2.Type, 1
TestParameter, AutoAnalysis.Line2.Fix, True
TestParameter, AutoAnalysis.Line2.YAxis, 0
TestParameter, AutoAnalysis.Line2.Point1.Type, 0
TestParameter, AutoAnalysis.Line2.Point1.XY.X, 
TestParameter, AutoAnalysis.Line2.Point1.XY.Y, 
TestParameter, AutoAnalysis.Line2.Point1.Data.Var, 
TestParameter, AutoAnalysis.Line2.Point1.Data.Condition, 
TestParameter, AutoAnalysis.Line2.Point1.Data.Start, false
TestParameter, AutoAnalysis.Line2.Point1.Data.StartVar, 
TestParameter, AutoAnalysis.Line2.Point1.Data.StartCondition, 
TestParameter, AutoAnalysis.Line2.Point2.Type, 0
TestParameter, AutoAnalysis.Line2.Point2.XY.X, 
TestParameter, AutoAnalysis.Line2.Point2.XY.Y, 
TestParameter, AutoAnalysis.Line2.Point2.Data.Var, 
TestParameter, AutoAnalysis.Line2.Point2.Data.Condition, 
TestParameter, AutoAnalysis.Line2.Point2.Data.Start, false
TestParameter, AutoAnalysis.Line2.Point2.Data.StartVar, 
TestParameter, AutoAnalysis.Line2.Point2.Data.StartCondition, 
TestParameter, AutoAnalysis.Line2.GradientExpr, 0
TestParameter, AutoAnalysis.Marker.Enabled, false
TestParameter, AutoAnalysis.Marker.Data.Var, 
TestParameter, AutoAnalysis.Marker.Data.Condition, 
TestParameter, AutoAnalysis.Marker.Data.Start, false
TestParameter, AutoAnalysis.Marker.Data.StartVar, 
TestParameter, AutoAnalysis.Marker.Data.StartCondition, 
MetaData, TestRecord.EntryPoint, true
MetaData, TestRecord.RecordTime, 10/24/2023 13:28:32
MetaData, TestRecord.TestTarget, step0_1
MetaData, TestRecord.IterationIndex, 1
MetaData, TestRecord.Preservation, true
MetaData, TestRecord.Flag, 
MetaData, TestRecord.Remarks, 
MetaData, TestRecord.LinkKey, 43cf7b75-3cda-4912-996f-f57ca8c7e659
Dimension1, 41, 41, 41
Dimension2, 1, 1, 1
DataName, Vca, Ica, R
DataValue, 0, -3.07E-13, -0
DataValue, 0.05, 5.41E-13, 92421441774.4917
DataValue, 0.1, 7.98E-13, 125313283208.02
DataValue, 0.15000000000000002, 1.151E-12, 130321459600.348
DataValue, 0.2, 1.3789999999999999E-12, 145032632342.27698
DataValue, 0.25, 1.588E-12, 157430730478.589
DataValue, 0.30000000000000004, 1.788E-12, 167785234899.32898
DataValue, 0.35000000000000003, 2.0099999999999997E-12, 174129353233.831
DataValue, 0.4, 2.162E-12, 185013876040.703
DataValue, 0.45, 2.342E-12, 192143467122.118
DataValue, 0.5, 2.4529999999999997E-12, 203832042397.06497
DataValue, 0.55, 2.644E-12, 208018154311.64902
DataValue, 0.60000000000000009, 2.769E-12, 216684723726.977
DataValue, 0.65, 2.897E-12, 224370037970.314
DataValue, 0.70000000000000007, 3.06E-12, 228758169934.641
DataValue, 0.75, 3.204E-12, 234082397003.74497
DataValue, 0.8, 3.2719999999999998E-12, 244498777506.112
DataValue, 0.85000000000000009, 3.444E-12, 246806039488.966
DataValue, 0.9, 3.535E-12, 254596888260.255
DataValue, 0.95000000000000007, 3.6619999999999995E-12, 259421081376.29697
DataValue, 1, 3.759E-12, 266028198989.093
DataValue, 1.05, 3.887E-12, 270131206586.05597
DataValue, 1.1, 4.008E-12, 274451097804.391
DataValue, 1.15, 4.115E-12, 279465370595.383
DataValue, 1.2, 4.234E-12, 283419933868.682
DataValue, 1.25, 4.346E-12, 287620800736.30896
DataValue, 1.3, 4.3959999999999994E-12, 295723384895.359
DataValue, 1.35, 4.565E-12, 295728368017.52496
DataValue, 1.4, 4.7119999999999993E-12, 297113752122.24097
DataValue, 1.45, 4.74E-12, 305907172995.781
DataValue, 1.5, 4.8479999999999995E-12, 309405940594.059
DataValue, 1.55, 4.932E-12, 314274128142.74097
DataValue, 1.6, 5.008E-12, 319488817891.374
DataValue, 1.65, 5.128E-12, 321762870514.821
DataValue, 1.7, 5.247E-12, 323994663617.305
DataValue, 1.75, 5.3189999999999994E-12, 329009212257.943
DataValue, 1.8, 5.428E-12, 331613854089.904
DataValue, 1.85, 5.524E-12, 334902244750.18097
DataValue, 1.9, 5.628E-12, 337597725657.427
DataValue, 1.95, 5.6769999999999993E-12, 343491280605.95404
DataValue, 2, 5.803E-12, 344649319317.594