
SetupTitle, Mirror
PrimitiveTest, I/V Sweep
TestParameter, Context.MainFrame, B1500A
TestParameter, Channel.UnitType, SMU, SMU, SMU, SMU
TestParameter, Channel.Unit, SMU1:MP, SMU2:MP, SMU3:MP, GNDU:GND
TestParameter, Channel.IName, I_M_IN, I_M_OUT, Icc, IEE
TestParameter, Channel.VName, V_M_IN, V_M_OUT, VCCMirror, VEE
TestParameter, Channel.Mode, I, V, V, COMMON
TestParameter, Channel.Func, VAR1, VAR2, CONST, CONST
TestParameter, Channel.Index, 
TestParameter, Channel.Time, 
TestParameter, Measurement.Port.Unit, SMU1:MP, SMU2:MP, SMU3:MP, GNDU:GND
TestParameter, Measurement.Port.SeriesResistor, NONE, NONE, NONE, NONE
TestParameter, Measurement.Port.Filter, ON, ON, ON, ON
TestParameter, Measurement.Primary.Locus, Single
TestParameter, Measurement.Primary.Scale, LINEAR
TestParameter, Measurement.Primary.Start, -0.0001
TestParameter, Measurement.Primary.Stop, -0.02
TestParameter, Measurement.Primary.Step, -0.0001
TestParameter, Measurement.Primary.Compliance, 2.5
TestParameter, Measurement.Primary.PowerCompliance, 0
TestParameter, Measurement.Aborting.Condition, CONTINUE AT ANY
TestParameter, Measurement.PostOutput.Value, START
TestParameter, Measurement.PostOutput.Retention, OFF
TestParameter, Measurement.Secondary.Start, 0
TestParameter, Measurement.Secondary.Count, 4
TestParameter, Measurement.Secondary.Step, 1
TestParameter, Measurement.Secondary.Compliance, 0.02
TestParameter, Measurement.Secondary.PowerCompliance, 0
TestParameter, Measurement.Bias.Source, -0.0001, 0, 3.3, 0
TestParameter, Measurement.Bias.Compliance, 2.5, 0.02, 0.1, 1
TestParameter, Measurement.Monitor.Unit, SMU1:MP, SMU2:MP, GNDU:GND, SMU3:MP
TestParameter, Measurement.Monitor.Adc, HR ADC, HR ADC, HR ADC, HR ADC
TestParameter, Measurement.Monitor.RangingMode, AUTO, LIMITED, LIMITED, LIMITED
TestParameter, Measurement.Monitor.RangeBoundary, , 100mA, 1nA, 100mA
TestParameter, Measurement.Timing.Hold, 0.01
TestParameter, Measurement.Timing.Delay, 0.01
TestParameter, Measurement.Adc.HighSpeed.Mode, AUTO
TestParameter, Measurement.Adc.HighSpeed.Coeff, 1
TestParameter, Measurement.Adc.HighResolution.AutoZero, ON
TestParameter, Measurement.Adc.HighResolution.Mode, AUTO
TestParameter, Measurement.Adc.HighResolution.Coeff, 10
TestParameter, Measurement.WaitTime.Source.Coeff, 1
TestParameter, Measurement.WaitTime.Source.Offset, 0
TestParameter, Measurement.WaitTime.Monitor.Coeff, 1
TestParameter, Measurement.WaitTime.Monitor.Offset, 0
TestParameter, Function.User.Name, M, mI_M_OUT, VD, mI_M_IN
TestParameter, Function.User.Unit, , , , 
TestParameter, Function.User.Definition, I_M_OUT/I_M_IN, -I_M_OUT, VCCMirror-V_M_IN, -I_M_IN
TestParameter, Output.Graph.Enabled, true
TestParameter, Output.Graph.XAxis.Data, mI_M_IN
TestParameter, Output.Graph.XAxis.Scale, Linear
TestParameter, Output.Graph.XAxis.Left, 0
TestParameter, Output.Graph.XAxis.Right, 0.02
TestParameter, Output.Graph.YAxis.Data, mI_M_OUT, M
TestParameter, Output.Graph.YAxis.Scale, Linear, Linear
TestParameter, Output.Graph.YAxis.Bottom, 0, 0.8
TestParameter, Output.Graph.YAxis.Top, 0.02, 1.2
TestParameter, Output.Graph.YAxis.Group, , 
TestParameter, AutoAnalysis.Interpolation, false
TestParameter, AutoAnalysis.Line1.Enabled, false
TestParameter, AutoAnalysis.Line1.Type, 2
TestParameter, AutoAnalysis.Line1.Fix, False
TestParameter, AutoAnalysis.Line1.YAxis, 0
TestParameter, AutoAnalysis.Line1.Point1.Type, 0
TestParameter, AutoAnalysis.Line1.Point1.XY.X, 
TestParameter, AutoAnalysis.Line1.Point1.XY.Y, 
TestParameter, AutoAnalysis.Line1.Point1.Data.Var, 
TestParameter, AutoAnalysis.Line1.Point1.Data.Condition, 
TestParameter, AutoAnalysis.Line1.Point1.Data.Start, false
TestParameter, AutoAnalysis.Line1.Point1.Data.StartVar, 
TestParameter, AutoAnalysis.Line1.Point1.Data.StartCondition, 
TestParameter, AutoAnalysis.Line1.Point2.Type, 0
TestParameter, AutoAnalysis.Line1.Point2.XY.X, 
TestParameter, AutoAnalysis.Line1.Point2.XY.Y, 
TestParameter, AutoAnalysis.Line1.Point2.Data.Var, 
TestParameter, AutoAnalysis.Line1.Point2.Data.Condition, 
TestParameter, AutoAnalysis.Line1.Point2.Data.Start, false
TestParameter, AutoAnalysis.Line1.Point2.Data.StartVar, 
TestParameter, AutoAnalysis.Line1.Point2.Data.StartCondition, 
TestParameter, AutoAnalysis.Line1.GradientExpr, 0
TestParameter, AutoAnalysis.Line2.Enabled, false
TestParameter, AutoAnalysis.Line2.Type, 1
TestParameter, AutoAnalysis.Line2.Fix, True
TestParameter, AutoAnalysis.Line2.YAxis, 0
TestParameter, AutoAnalysis.Line2.Point1.Type, 0
TestParameter, AutoAnalysis.Line2.Point1.XY.X, 
TestParameter, AutoAnalysis.Line2.Point1.XY.Y, 
TestParameter, AutoAnalysis.Line2.Point1.Data.Var, 
TestParameter, AutoAnalysis.Line2.Point1.Data.Condition, 
TestParameter, AutoAnalysis.Line2.Point1.Data.Start, false
TestParameter, AutoAnalysis.Line2.Point1.Data.StartVar, 
TestParameter, AutoAnalysis.Line2.Point1.Data.StartCondition, 
TestParameter, AutoAnalysis.Line2.Point2.Type, 0
TestParameter, AutoAnalysis.Line2.Point2.XY.X, 
TestParameter, AutoAnalysis.Line2.Point2.XY.Y, 
TestParameter, AutoAnalysis.Line2.Point2.Data.Var, 
TestParameter, AutoAnalysis.Line2.Point2.Data.Condition, 
TestParameter, AutoAnalysis.Line2.Point2.Data.Start, false
TestParameter, AutoAnalysis.Line2.Point2.Data.StartVar, 
TestParameter, AutoAnalysis.Line2.Point2.Data.StartCondition, 
TestParameter, AutoAnalysis.Line2.GradientExpr, 0
TestParameter, AutoAnalysis.Marker.Enabled, false
TestParameter, AutoAnalysis.Marker.Data.Var, 
TestParameter, AutoAnalysis.Marker.Data.Condition, 
TestParameter, AutoAnalysis.Marker.Data.Start, false
TestParameter, AutoAnalysis.Marker.Data.StartVar, 
TestParameter, AutoAnalysis.Marker.Data.StartCondition, 
MetaData, TestRecord.EntryPoint, true
MetaData, TestRecord.RecordTime, 11/15/2023 08:46:55
MetaData, TestRecord.TestTarget, step3_6
MetaData, TestRecord.IterationIndex, 1
MetaData, TestRecord.Preservation, true
MetaData, TestRecord.Flag, 
MetaData, TestRecord.Remarks, 
MetaData, TestRecord.LinkKey, b031be60-2dde-4b90-9572-ad2c475c4d17
Dimension1, 200, 200, 200, 200, 200, 200, 200, 200
Dimension2, 4, 4, 4, 4, 4, 4, 4, 4
DataName, I_M_IN, VCCMirror, V_M_IN, I_M_OUT, M, mI_M_OUT, VD, mI_M_IN
DataValue, -0.0001, 3.3, 2.659, -0.000127, 1.27, 0.000127, 0.641, 0.0001
DataValue, -0.0002, 3.3, 2.6393, -0.000248, 1.24, 0.000248, 0.66070000000000006, 0.0002
DataValue, -0.00030000000000000003, 3.3, 2.62795, -0.000366, 1.22, 0.000366, 0.67205, 0.00030000000000000003
DataValue, -0.0004, 3.3, 2.6195, -0.00048, 1.2, 0.00048, 0.6805, 0.0004
DataValue, -0.0005, 3.3, 2.61255, -0.000599, 1.198, 0.000599, 0.68745000000000012, 0.0005
DataValue, -0.00060000000000000006, 3.3, 2.60695, -0.000715, 1.19166666666667, 0.000715, 0.69305, 0.00060000000000000006
DataValue, -0.0007, 3.3, 2.6019, -0.00083100000000000014, 1.18714285714286, 0.00083100000000000014, 0.6981, 0.0007
DataValue, -0.0008, 3.3, 2.59755, -0.000945, 1.18125, 0.000945, 0.70245, 0.0008
DataValue, -0.00090000000000000008, 3.3, 2.5937, -0.0010580000000000001, 1.17555555555556, 0.0010580000000000001, 0.7063, 0.00090000000000000008
DataValue, -0.001, 3.3, 2.59, -0.0011719999999999999, 1.172, 0.0011719999999999999, 0.71, 0.001
DataValue, -0.0011, 3.3, 2.5867, -0.001285, 1.16818181818182, 0.001285, 0.7133, 0.0011
DataValue, -0.0012, 3.3, 2.58365, -0.001398, 1.165, 0.001398, 0.71635, 0.0012
DataValue, -0.0013000000000000002, 3.3, 2.58065, -0.001512, 1.16307692307692, 0.001512, 0.71935, 0.0013000000000000002
DataValue, -0.0014, 3.3, 2.57795, -0.0016240000000000002, 1.16, 0.0016240000000000002, 0.72205000000000008, 0.0014
DataValue, -0.0015, 3.3, 2.57535, -0.001739, 1.15933333333333, 0.001739, 0.72465, 0.0015
DataValue, -0.0016, 3.3, 2.5729, -0.001849, 1.155625, 0.001849, 0.72710000000000008, 0.0016
DataValue, -0.0017, 3.3, 2.57045, -0.001958, 1.15176470588235, 0.001958, 0.72955, 0.0017
DataValue, -0.0018000000000000002, 3.3, 2.5682, -0.002074, 1.15222222222222, 0.002074, 0.7318, 0.0018000000000000002
DataValue, -0.0019, 3.3, 2.56605, -0.002183, 1.14894736842105, 0.002183, 0.7339500000000001, 0.0019
DataValue, -0.002, 3.3, 2.5641, -0.0022930000000000003, 1.1465, 0.0022930000000000003, 0.7359, 0.002
DataValue, -0.0021000000000000003, 3.3, 2.562, -0.002404, 1.1447619047619, 0.002404, 0.738, 0.0021000000000000003
DataValue, -0.0022, 3.3, 2.56005, -0.002516, 1.14363636363636, 0.002516, 0.73995, 0.0022
DataValue, -0.0023, 3.3, 2.5581, -0.002624, 1.14086956521739, 0.002624, 0.7419, 0.0023
DataValue, -0.0024, 3.3, 2.5562, -0.0027370000000000003, 1.14041666666667, 0.0027370000000000003, 0.7438, 0.0024
DataValue, -0.0025, 3.3, 2.5544, -0.002847, 1.1388, 0.002847, 0.7456, 0.0025
DataValue, -0.0026000000000000003, 3.3, 2.5527, -0.002957, 1.13730769230769, 0.002957, 0.74730000000000008, 0.0026000000000000003
DataValue, -0.0027, 3.3, 2.551, -0.0030670000000000003, 1.13592592592593, 0.0030670000000000003, 0.74900000000000011, 0.0027
DataValue, -0.0028, 3.3, 2.54945, -0.003174, 1.13357142857143, 0.003174, 0.75055, 0.0028
DataValue, -0.0029, 3.3, 2.54775, -0.003287, 1.13344827586207, 0.003287, 0.75225000000000009, 0.0029
DataValue, -0.003, 3.3, 2.5462, -0.0033940000000000003, 1.13133333333333, 0.0033940000000000003, 0.7538, 0.003
DataValue, -0.0031000000000000003, 3.3, 2.5447, -0.0035009999999999998, 1.12935483870968, 0.0035009999999999998, 0.75530000000000008, 0.0031000000000000003
DataValue, -0.0032, 3.3, 2.54305, -0.003614, 1.129375, 0.003614, 0.75695, 0.0032
DataValue, -0.0033, 3.3, 2.5416, -0.00372, 1.12727272727273, 0.00372, 0.7584, 0.0033
DataValue, -0.0034, 3.3, 2.5402, -0.003826, 1.12529411764706, 0.003826, 0.7598, 0.0034
DataValue, -0.0035, 3.3, 2.5388, -0.0039380000000000005, 1.12514285714286, 0.0039380000000000005, 0.7612000000000001, 0.0035
DataValue, -0.0036000000000000003, 3.3, 2.53735, -0.004044, 1.12333333333333, 0.004044, 0.76265, 0.0036000000000000003
DataValue, -0.0037, 3.3, 2.5359, -0.0041550000000000007, 1.12297297297297, 0.0041550000000000007, 0.7641, 0.0037
DataValue, -0.0038, 3.3, 2.53455, -0.0042619999999999993, 1.12157894736842, 0.0042619999999999993, 0.76545, 0.0038
DataValue, -0.0039, 3.3, 2.5332, -0.004368, 1.12, 0.004368, 0.7668, 0.0039
DataValue, -0.004, 3.3, 2.5319, -0.004478, 1.1195, 0.004478, 0.7681, 0.004
DataValue, -0.0040999999999999995, 3.3, 2.53055, -0.0045839999999999995, 1.1180487804878, 0.0045839999999999995, 0.76945, 0.0040999999999999995
DataValue, -0.0042000000000000006, 3.3, 2.52925, -0.004692, 1.11714285714286, 0.004692, 0.77075, 0.0042000000000000006
DataValue, -0.0043, 3.3, 2.5281, -0.0048, 1.11627906976744, 0.0048, 0.7719, 0.0043
DataValue, -0.0044, 3.3, 2.52675, -0.004906, 1.115, 0.004906, 0.77325, 0.0044
DataValue, -0.0045000000000000005, 3.3, 2.52555, -0.0050149999999999995, 1.11444444444444, 0.0050149999999999995, 0.77445000000000008, 0.0045000000000000005
DataValue, -0.0046, 3.3, 2.5243, -0.0051210000000000006, 1.11326086956522, 0.0051210000000000006, 0.77570000000000006, 0.0046
DataValue, -0.0047, 3.3, 2.5232, -0.005225, 1.11170212765957, 0.005225, 0.7768, 0.0047
DataValue, -0.0048, 3.3, 2.522, -0.005338, 1.11208333333333, 0.005338, 0.778, 0.0048
DataValue, -0.0049000000000000007, 3.3, 2.5207, -0.0054420000000000007, 1.11061224489796, 0.0054420000000000007, 0.7793000000000001, 0.0049000000000000007
DataValue, -0.005, 3.3, 2.51955, -0.0055460000000000006, 1.1092, 0.0055460000000000006, 0.78045000000000009, 0.005
DataValue, -0.0050999999999999995, 3.3, 2.5184, -0.005654, 1.10862745098039, 0.005654, 0.78160000000000007, 0.0050999999999999995
DataValue, -0.0052000000000000006, 3.3, 2.51735, -0.0057599999999999995, 1.10769230769231, 0.0057599999999999995, 0.78265000000000007, 0.0052000000000000006
DataValue, -0.0053, 3.3, 2.5162, -0.005864, 1.10641509433962, 0.005864, 0.7838, 0.0053
DataValue, -0.0054, 3.3, 2.5151, -0.0059720000000000007, 1.10592592592593, 0.0059720000000000007, 0.7849, 0.0054
DataValue, -0.0055, 3.3, 2.51395, -0.00608, 1.10545454545455, 0.00608, 0.78605, 0.0055
DataValue, -0.0056, 3.3, 2.5128, -0.006186, 1.10464285714286, 0.006186, 0.7872, 0.0056
DataValue, -0.0057, 3.3, 2.51175, -0.0062900000000000005, 1.10350877192982, 0.0062900000000000005, 0.78825000000000012, 0.0057
DataValue, -0.0058, 3.3, 2.51065, -0.006395, 1.10258620689655, 0.006395, 0.78935000000000011, 0.0058
DataValue, -0.0059000000000000007, 3.3, 2.50955, -0.0065039999999999994, 1.10237288135593, 0.0065039999999999994, 0.79045, 0.0059000000000000007
DataValue, -0.006, 3.3, 2.50865, -0.006607, 1.10116666666667, 0.006607, 0.79135, 0.006
DataValue, -0.0060999999999999995, 3.3, 2.50745, -0.00671, 1.1, 0.00671, 0.79255000000000009, 0.0060999999999999995
DataValue, -0.0062000000000000006, 3.3, 2.50645, -0.006819, 1.09983870967742, 0.006819, 0.79355000000000009, 0.0062000000000000006
DataValue, -0.0063, 3.3, 2.5054, -0.0069240000000000005, 1.09904761904762, 0.0069240000000000005, 0.7946, 0.0063
DataValue, -0.0064, 3.3, 2.50445, -0.007027, 1.09796875, 0.007027, 0.79555, 0.0064
DataValue, -0.0065000000000000006, 3.3, 2.50345, -0.007136, 1.09784615384615, 0.007136, 0.79655, 0.0065000000000000006
DataValue, -0.0066, 3.3, 2.5024, -0.007237, 1.09651515151515, 0.007237, 0.79760000000000009, 0.0066
DataValue, -0.0067, 3.3, 2.5014, -0.007345, 1.09626865671642, 0.007345, 0.7986, 0.0067
DataValue, -0.0068, 3.3, 2.5004, -0.0074480000000000006, 1.09529411764706, 0.0074480000000000006, 0.79960000000000009, 0.0068
DataValue, -0.0069000000000000008, 3.3, 2.49945, -0.007552, 1.09449275362319, 0.007552, 0.80055, 0.0069000000000000008
DataValue, -0.007, 3.3, 2.49835, -0.007659, 1.09414285714286, 0.007659, 0.80165000000000008, 0.007
DataValue, -0.0070999999999999995, 3.3, 2.4975, -0.007762, 1.09323943661972, 0.007762, 0.8025000000000001, 0.0070999999999999995
DataValue, -0.0072000000000000007, 3.3, 2.49655, -0.007863, 1.09208333333333, 0.007863, 0.80345, 0.0072000000000000007
DataValue, -0.0073, 3.3, 2.4955, -0.007972, 1.09205479452055, 0.007972, 0.8045, 0.0073
DataValue, -0.0074, 3.3, 2.4946, -0.008074, 1.09108108108108, 0.008074, 0.80540000000000012, 0.0074
DataValue, -0.0075, 3.3, 2.49365, -0.008180999999999999, 1.0908, 0.008180999999999999, 0.80635, 0.0075
DataValue, -0.0076, 3.3, 2.49265, -0.008283, 1.08986842105263, 0.008283, 0.80735, 0.0076
DataValue, -0.0077, 3.3, 2.49185, -0.008386, 1.08909090909091, 0.008386, 0.80815, 0.0077
DataValue, -0.0078, 3.3, 2.4909, -0.008494, 1.08897435897436, 0.008494, 0.80909999999999993, 0.0078
DataValue, -0.0079, 3.3, 2.48995, -0.008595, 1.0879746835443, 0.008595, 0.81005, 0.0079
DataValue, -0.008, 3.3, 2.489, -0.008696, 1.087, 0.008696, 0.81099999999999994, 0.008
DataValue, -0.0081, 3.3, 2.4881, -0.0088030000000000018, 1.08679012345679, 0.0088030000000000018, 0.81190000000000007, 0.0081
DataValue, -0.008199999999999999, 3.3, 2.4873, -0.008906, 1.08609756097561, 0.008906, 0.81270000000000009, 0.008199999999999999
DataValue, -0.0083, 3.3, 2.48635, -0.009005, 1.08493975903614, 0.009005, 0.81365, 0.0083
DataValue, -0.0084000000000000012, 3.3, 2.48545, -0.009113, 1.08488095238095, 0.009113, 0.81455000000000011, 0.0084000000000000012
DataValue, -0.0085, 3.3, 2.4846, -0.009216, 1.08423529411765, 0.009216, 0.8154, 0.0085
DataValue, -0.0086, 3.3, 2.4836, -0.009321, 1.08383720930233, 0.009321, 0.8164, 0.0086
DataValue, -0.0087, 3.3, 2.48275, -0.009423, 1.08310344827586, 0.009423, 0.81725, 0.0087
DataValue, -0.0088, 3.3, 2.4819, -0.009523, 1.08215909090909, 0.009523, 0.81809999999999994, 0.0088
DataValue, -0.0089, 3.3, 2.481, -0.009629, 1.08191011235955, 0.009629, 0.819, 0.0089
DataValue, -0.0090000000000000011, 3.3, 2.48015, -0.009731, 1.08122222222222, 0.009731, 0.81985, 0.0090000000000000011
DataValue, -0.0091, 3.3, 2.4793, -0.009832, 1.08043956043956, 0.009832, 0.8207000000000001, 0.0091
DataValue, -0.0092, 3.3, 2.47835, -0.009938, 1.08021739130435, 0.009938, 0.82165, 0.0092
DataValue, -0.009300000000000001, 3.3, 2.4776, -0.010039000000000001, 1.0794623655914, 0.010039000000000001, 0.8224, 0.009300000000000001
DataValue, -0.0094, 3.3, 2.4768, -0.010143, 1.07904255319149, 0.010143, 0.82319999999999993, 0.0094
DataValue, -0.0095, 3.3, 2.47595, -0.010246, 1.07852631578947, 0.010246, 0.82405000000000017, 0.0095
DataValue, -0.0096, 3.3, 2.475, -0.010344, 1.0775, 0.010344, 0.82500000000000007, 0.0096
DataValue, -0.0097, 3.3, 2.4742, -0.01045, 1.07731958762887, 0.01045, 0.8258, 0.0097
DataValue, -0.0098000000000000014, 3.3, 2.4734, -0.01055, 1.0765306122449, 0.01055, 0.8266, 0.0098000000000000014
DataValue, -0.0099, 3.3, 2.47255, -0.010650999999999999, 1.07585858585859, 0.010650999999999999, 0.82745, 0.0099
DataValue, -0.01, 3.3, 2.47165, -0.010756, 1.0756, 0.010756, 0.82835, 0.01
DataValue, -0.0101, 3.3, 2.47085, -0.010858000000000001, 1.0750495049505, 0.010858000000000001, 0.82914999999999994, 0.0101
DataValue, -0.0102, 3.3, 2.47005, -0.010958, 1.0743137254902, 0.010958, 0.82995000000000008, 0.0102
DataValue, -0.0103, 3.3, 2.46925, -0.011062, 1.07398058252427, 0.011062, 0.83075, 0.0103
DataValue, -0.010400000000000001, 3.3, 2.4684, -0.011164, 1.07346153846154, 0.011164, 0.83160000000000012, 0.010400000000000001
DataValue, -0.0105, 3.3, 2.46765, -0.011266, 1.07295238095238, 0.011266, 0.83234999999999992, 0.0105
DataValue, -0.0106, 3.3, 2.46675, -0.011368000000000001, 1.07245283018868, 0.011368000000000001, 0.83325, 0.0106
DataValue, -0.010700000000000001, 3.3, 2.46605, -0.011467000000000002, 1.07168224299065, 0.011467000000000002, 0.83395, 0.010700000000000001
DataValue, -0.0108, 3.3, 2.4652, -0.011571, 1.07138888888889, 0.011571, 0.8348000000000001, 0.0108
DataValue, -0.010900000000000002, 3.3, 2.4644, -0.011671, 1.07073394495413, 0.011671, 0.8356, 0.010900000000000002
DataValue, -0.011000000000000001, 3.3, 2.46355, -0.011772000000000001, 1.07018181818182, 0.011772000000000001, 0.83645, 0.011000000000000001
DataValue, -0.0111, 3.3, 2.4628, -0.011875, 1.06981981981982, 0.011875, 0.8372, 0.0111
DataValue, -0.011200000000000002, 3.3, 2.462, -0.011975, 1.06919642857143, 0.011975, 0.83800000000000008, 0.011200000000000002
DataValue, -0.0113, 3.3, 2.46115, -0.012077000000000001, 1.0687610619469, 0.012077000000000001, 0.8388500000000001, 0.0113
DataValue, -0.011399999999999999, 3.3, 2.46035, -0.01218, 1.06842105263158, 0.01218, 0.83965, 0.011399999999999999
DataValue, -0.0115, 3.3, 2.4596, -0.012279, 1.06773913043478, 0.012279, 0.8404, 0.0115
DataValue, -0.0116, 3.3, 2.45885, -0.012383, 1.0675, 0.012383, 0.84115000000000006, 0.0116
DataValue, -0.0117, 3.3, 2.4581, -0.012482, 1.06683760683761, 0.012482, 0.84190000000000009, 0.0117
DataValue, -0.0118, 3.3, 2.45735, -0.012580000000000001, 1.06610169491525, 0.012580000000000001, 0.84265000000000012, 0.0118
DataValue, -0.011899999999999999, 3.3, 2.4566, -0.012686, 1.06605042016807, 0.012686, 0.84339999999999993, 0.011899999999999999
DataValue, -0.012, 3.3, 2.45575, -0.012785, 1.06541666666667, 0.012785, 0.84425000000000017, 0.012
DataValue, -0.0121, 3.3, 2.455, -0.012884, 1.06479338842975, 0.012884, 0.845, 0.0121
DataValue, -0.0122, 3.3, 2.45425, -0.012988, 1.06459016393443, 0.012988, 0.84575, 0.0122
DataValue, -0.0123, 3.3, 2.45355, -0.013086, 1.06390243902439, 0.013086, 0.84644999999999992, 0.0123
DataValue, -0.0124, 3.3, 2.45265, -0.013188, 1.06354838709677, 0.013188, 0.84735, 0.0124
DataValue, -0.0125, 3.3, 2.4519, -0.013288, 1.06304, 0.013288, 0.84810000000000008, 0.0125
DataValue, -0.0126, 3.3, 2.45115, -0.013388, 1.06253968253968, 0.013388, 0.8488500000000001, 0.0126
DataValue, -0.012700000000000001, 3.3, 2.4504, -0.013491, 1.06228346456693, 0.013491, 0.84960000000000013, 0.012700000000000001
DataValue, -0.0128, 3.3, 2.44975, -0.013587, 1.061484375, 0.013587, 0.85025, 0.0128
DataValue, -0.0129, 3.3, 2.4489, -0.013688, 1.06108527131783, 0.013688, 0.8511, 0.0129
