
SetupTitle, C IV leak
PrimitiveTest, I/V Sweep
TestParameter, Context.MainFrame, B1500A
TestParameter, Channel.UnitType, SMU, SMU, SMU
TestParameter, Channel.Unit, SMU1:MP, SMU2:MP, GNDU:GND
TestParameter, Channel.IName, Ica, Icb, IEE
TestParameter, Channel.VName, Vca, Vcb, VEE
TestParameter, Channel.Mode, V, COMMON, COMMON
TestParameter, Channel.Func, VAR1, CONST, CONST
TestParameter, Channel.Index, 
TestParameter, Channel.Time, 
TestParameter, Measurement.Port.Unit, SMU1:MP, SMU2:MP, GNDU:GND
TestParameter, Measurement.Port.SeriesResistor, NONE, NONE, NONE
TestParameter, Measurement.Port.Filter, ON, ON, ON
TestParameter, Measurement.Primary.Locus, Single
TestParameter, Measurement.Primary.Scale, LINEAR
TestParameter, Measurement.Primary.Start, 0
TestParameter, Measurement.Primary.Stop, 2
TestParameter, Measurement.Primary.Step, 0.05
TestParameter, Measurement.Primary.Compliance, 0.003
TestParameter, Measurement.Primary.PowerCompliance, 0
TestParameter, Measurement.Aborting.Condition, CONTINUE AT ANY
TestParameter, Measurement.PostOutput.Value, START
TestParameter, Measurement.PostOutput.Retention, OFF
TestParameter, Measurement.Bias.Source, 0, 0, 0
TestParameter, Measurement.Bias.Compliance, 0.003, 0.1, 1
TestParameter, Measurement.Monitor.Unit, SMU1:MP, SMU2:MP, GNDU:GND
TestParameter, Measurement.Monitor.Adc, HR ADC, HR ADC, HR ADC
TestParameter, Measurement.Monitor.RangingMode, LIMITED, LIMITED, LIMITED
TestParameter, Measurement.Monitor.RangeBoundary, 1nA, 1nA, 1nA
TestParameter, Measurement.Monitor.RangeRating, BY FULL RANGE, BY FULL RANGE, BY FULL RANGE
TestParameter, Measurement.Monitor.RangeRatingCoeff, 50, 50, 50
TestParameter, Measurement.Timing.Hold, 0.01
TestParameter, Measurement.Timing.Delay, 0.001
TestParameter, Measurement.Adc.HighSpeed.Mode, AUTO
TestParameter, Measurement.Adc.HighSpeed.Coeff, 1
TestParameter, Measurement.Adc.HighResolution.AutoZero, OFF
TestParameter, Measurement.Adc.HighResolution.Mode, PLC
TestParameter, Measurement.Adc.HighResolution.Coeff, 10
TestParameter, Measurement.WaitTime.Source.Coeff, 1
TestParameter, Measurement.WaitTime.Source.Offset, 0
TestParameter, Measurement.WaitTime.Monitor.Coeff, 1
TestParameter, Measurement.WaitTime.Monitor.Offset, 0
TestParameter, Function.User.Name, R
TestParameter, Function.User.Unit, ohm
TestParameter, Function.User.Definition, Vca/Ica
TestParameter, Output.Graph.Enabled, true
TestParameter, Output.Graph.XAxis.Data, Vca
TestParameter, Output.Graph.XAxis.Scale, Linear
TestParameter, Output.Graph.XAxis.Left, 0
TestParameter, Output.Graph.XAxis.Right, 2
TestParameter, Output.Graph.YAxis.Data, Ica
TestParameter, Output.Graph.YAxis.Scale, Linear
TestParameter, Output.Graph.YAxis.Bottom, 0
TestParameter, Output.Graph.YAxis.Top, 1E-11
TestParameter, Output.Graph.YAxis.Group, 
TestParameter, AutoAnalysis.Interpolation, false
TestParameter, AutoAnalysis.Line1.Enabled, false
TestParameter, AutoAnalysis.Line1.Type, 2
TestParameter, AutoAnalysis.Line1.Fix, False
TestParameter, AutoAnalysis.Line1.YAxis, 0
TestParameter, AutoAnalysis.Line1.Point1.Type, 0
TestParameter, AutoAnalysis.Line1.Point1.XY.X, 
TestParameter, AutoAnalysis.Line1.Point1.XY.Y, 
TestParameter, AutoAnalysis.Line1.Point1.Data.Var, 
TestParameter, AutoAnalysis.Line1.Point1.Data.Condition, 
TestParameter, AutoAnalysis.Line1.Point1.Data.Start, false
TestParameter, AutoAnalysis.Line1.Point1.Data.StartVar, 
TestParameter, AutoAnalysis.Line1.Point1.Data.StartCondition, 
TestParameter, AutoAnalysis.Line1.Point2.Type, 0
TestParameter, AutoAnalysis.Line1.Point2.XY.X, 
TestParameter, AutoAnalysis.Line1.Point2.XY.Y, 
TestParameter, AutoAnalysis.Line1.Point2.Data.Var, 
TestParameter, AutoAnalysis.Line1.Point2.Data.Condition, 
TestParameter, AutoAnalysis.Line1.Point2.Data.Start, false
TestParameter, AutoAnalysis.Line1.Point2.Data.StartVar, 
TestParameter, AutoAnalysis.Line1.Point2.Data.StartCondition, 
TestParameter, AutoAnalysis.Line1.GradientExpr, 0
TestParameter, AutoAnalysis.Line2.Enabled, false
TestParameter, AutoAnalysis.Line2.Type, 1
TestParameter, AutoAnalysis.Line2.Fix, True
TestParameter, AutoAnalysis.Line2.YAxis, 0
TestParameter, AutoAnalysis.Line2.Point1.Type, 0
TestParameter, AutoAnalysis.Line2.Point1.XY.X, 
TestParameter, AutoAnalysis.Line2.Point1.XY.Y, 
TestParameter, AutoAnalysis.Line2.Point1.Data.Var, 
TestParameter, AutoAnalysis.Line2.Point1.Data.Condition, 
TestParameter, AutoAnalysis.Line2.Point1.Data.Start, false
TestParameter, AutoAnalysis.Line2.Point1.Data.StartVar, 
TestParameter, AutoAnalysis.Line2.Point1.Data.StartCondition, 
TestParameter, AutoAnalysis.Line2.Point2.Type, 0
TestParameter, AutoAnalysis.Line2.Point2.XY.X, 
TestParameter, AutoAnalysis.Line2.Point2.XY.Y, 
TestParameter, AutoAnalysis.Line2.Point2.Data.Var, 
TestParameter, AutoAnalysis.Line2.Point2.Data.Condition, 
TestParameter, AutoAnalysis.Line2.Point2.Data.Start, false
TestParameter, AutoAnalysis.Line2.Point2.Data.StartVar, 
TestParameter, AutoAnalysis.Line2.Point2.Data.StartCondition, 
TestParameter, AutoAnalysis.Line2.GradientExpr, 0
TestParameter, AutoAnalysis.Marker.Enabled, false
TestParameter, AutoAnalysis.Marker.Data.Var, 
TestParameter, AutoAnalysis.Marker.Data.Condition, 
TestParameter, AutoAnalysis.Marker.Data.Start, false
TestParameter, AutoAnalysis.Marker.Data.StartVar, 
TestParameter, AutoAnalysis.Marker.Data.StartCondition, 
MetaData, TestRecord.EntryPoint, true
MetaData, TestRecord.RecordTime, 11/26/2023 14:02:54
MetaData, TestRecord.TestTarget, step7_2
MetaData, TestRecord.IterationIndex, 1
MetaData, TestRecord.Preservation, true
MetaData, TestRecord.Flag, 
MetaData, TestRecord.Remarks, 
MetaData, TestRecord.LinkKey, 2aeaeaee-15fc-42de-a8fc-b9214f1912ad
Dimension1, 41, 41, 41
Dimension2, 1, 1, 1
DataName, Vca, Ica, R
DataValue, 0, -1E-15, -0
DataValue, 0.05, 7.4100000000000007E-13, 67476383265.857
DataValue, 0.1, 1.19E-12, 84033613445.3782
DataValue, 0.15000000000000002, 1.368E-12, 109649122807.01799
DataValue, 0.2, 1.625E-12, 123076923076.92299
DataValue, 0.25, 1.8129999999999999E-12, 137892995035.852
DataValue, 0.30000000000000004, 2.017E-12, 148735746157.66
DataValue, 0.35000000000000003, 2.134E-12, 164011246485.473
DataValue, 0.4, 2.349E-12, 170285227756.492
DataValue, 0.45, 2.43E-12, 185185185185.185
DataValue, 0.5, 2.6000000000000002E-12, 192307692307.69202
DataValue, 0.55, 2.659E-12, 206844678450.545
DataValue, 0.60000000000000009, 2.831E-12, 211939244083.363
DataValue, 0.65, 2.932E-12, 221691678035.471
DataValue, 0.70000000000000007, 3.057E-12, 228982662741.25
DataValue, 0.75, 3.169E-12, 236667718523.193
DataValue, 0.8, 3.283E-12, 243679561376.79
DataValue, 0.85000000000000009, 3.1989999999999996E-12, 265708033760.55002
DataValue, 0.9, 3.447E-12, 261096605744.125
DataValue, 0.95000000000000007, 3.4969999999999997E-12, 271661424077.781
DataValue, 1, 3.636E-12, 275027502750.275
DataValue, 1.05, 3.736E-12, 281049250535.33203
DataValue, 1.1, 3.782E-12, 290851401374.934
DataValue, 1.15, 3.889E-12, 295705836976.086
DataValue, 1.2, 4.016E-12, 298804780876.49396
DataValue, 1.25, 4.111E-12, 304062271953.29596
DataValue, 1.3, 4.189E-12, 310336595846.264
DataValue, 1.35, 4.2279999999999994E-12, 319299905392.62103
DataValue, 1.4, 4.335E-12, 322952710495.963
DataValue, 1.45, 4.332E-12, 334718374884.57996
DataValue, 1.5, 4.4820000000000005E-12, 334672021419.009
DataValue, 1.55, 4.573E-12, 338945987316.86
DataValue, 1.6, 4.6669999999999994E-12, 342832654810.37103
DataValue, 1.65, 4.671E-12, 353243416827.232
DataValue, 1.7, 4.791E-12, 354831976622.834
DataValue, 1.75, 4.894E-12, 357580711074.78503
DataValue, 1.8, 4.92E-12, 365853658536.58496
DataValue, 1.85, 5.006E-12, 369556532161.406
DataValue, 1.9, 5.0529999999999996E-12, 376014248961.013
DataValue, 1.95, 5.176E-12, 376738794435.85803
DataValue, 2, 5.206E-12, 384172109104.879