
SetupTitle, PMOS ID VDS
PrimitiveTest, I/V Sweep
TestParameter, Context.MainFrame, B1500A
TestParameter, Channel.UnitType, SMU, SMU, SMU, SMU, SMU
TestParameter, Channel.Unit, SMU1:MP, SMU2:MP, SMU3:MP, SMU4:MP, GNDU:GND
TestParameter, Channel.IName, IG, IS, ID, IDD, IEE
TestParameter, Channel.VName, VG, VS, VD, VDD, VEE
TestParameter, Channel.Mode, V, V, V, V, COMMON
TestParameter, Channel.Func, VAR2, CONST, VAR1, CONST, CONST
TestParameter, Channel.Index, 
TestParameter, Channel.Time, 
TestParameter, Measurement.Port.Unit, SMU1:MP, SMU2:MP, SMU3:MP, SMU4:MP, GNDU:GND
TestParameter, Measurement.Port.SeriesResistor, NONE, NONE, NONE, NONE, NONE
TestParameter, Measurement.Port.Filter, ON, ON, ON, ON, ON
TestParameter, Measurement.Primary.Locus, Single
TestParameter, Measurement.Primary.Scale, LINEAR
TestParameter, Measurement.Primary.Start, 2.5
TestParameter, Measurement.Primary.Stop, 0
TestParameter, Measurement.Primary.Step, -0.005
TestParameter, Measurement.Primary.Compliance, 0.02
TestParameter, Measurement.Primary.PowerCompliance, 0
TestParameter, Measurement.Aborting.Condition, CONTINUE AT ANY
TestParameter, Measurement.PostOutput.Value, START
TestParameter, Measurement.PostOutput.Retention, OFF
TestParameter, Measurement.Secondary.Start, 2.5
TestParameter, Measurement.Secondary.Count, 6
TestParameter, Measurement.Secondary.Step, -0.1
TestParameter, Measurement.Secondary.Compliance, 1E-05
TestParameter, Measurement.Secondary.PowerCompliance, 0
TestParameter, Measurement.Bias.Source, 2.5, 2.5, 2.5, 2.5, 0
TestParameter, Measurement.Bias.Compliance, 1E-05, 0.1, 0.02, 0.1, 1
TestParameter, Measurement.Monitor.Unit, SMU1:MP, SMU2:MP, SMU3:MP, SMU4:MP, GNDU:GND
TestParameter, Measurement.Monitor.Adc, HR ADC, HR ADC, HR ADC, HR ADC, HR ADC
TestParameter, Measurement.Monitor.RangingMode, LIMITED, LIMITED, LIMITED, LIMITED, LIMITED
TestParameter, Measurement.Monitor.RangeBoundary, 1nA, 1nA, 1nA, 1nA, 1nA
TestParameter, Measurement.Monitor.RangeRating, BY FULL RANGE, BY FULL RANGE, BY FULL RANGE, BY FULL RANGE, BY FULL RANGE
TestParameter, Measurement.Monitor.RangeRatingCoeff, 50, 50, 50, 50, 50
TestParameter, Measurement.Timing.Hold, 0
TestParameter, Measurement.Timing.Delay, 0
TestParameter, Measurement.Adc.HighSpeed.Mode, AUTO
TestParameter, Measurement.Adc.HighSpeed.Coeff, 1
TestParameter, Measurement.Adc.HighResolution.AutoZero, OFF
TestParameter, Measurement.Adc.HighResolution.Mode, AUTO
TestParameter, Measurement.Adc.HighResolution.Coeff, 127
TestParameter, Measurement.WaitTime.Source.Coeff, 1
TestParameter, Measurement.WaitTime.Source.Offset, 0
TestParameter, Measurement.WaitTime.Monitor.Coeff, 1
TestParameter, Measurement.WaitTime.Monitor.Offset, 0
TestParameter, Function.User.Name, mID, VDS
TestParameter, Function.User.Unit, A, V
TestParameter, Function.User.Definition, -ID, abs(VD-VS)
TestParameter, Output.Graph.Enabled, true
TestParameter, Output.Graph.XAxis.Data, VDS
TestParameter, Output.Graph.XAxis.Scale, Linear
TestParameter, Output.Graph.XAxis.Left, 0
TestParameter, Output.Graph.XAxis.Right, 2.5
TestParameter, Output.Graph.YAxis.Data, mID
TestParameter, Output.Graph.YAxis.Scale, Log
TestParameter, Output.Graph.YAxis.Bottom, 1E-09
TestParameter, Output.Graph.YAxis.Top, 0.01
TestParameter, Output.Graph.YAxis.Group, 
TestParameter, AutoAnalysis.Interpolation, false
TestParameter, AutoAnalysis.Line1.Enabled, false
TestParameter, AutoAnalysis.Line1.Type, 1
TestParameter, AutoAnalysis.Line1.Fix, True
TestParameter, AutoAnalysis.Line1.YAxis, 0
TestParameter, AutoAnalysis.Line1.Point1.Type, 0
TestParameter, AutoAnalysis.Line1.Point1.XY.X, 
TestParameter, AutoAnalysis.Line1.Point1.XY.Y, 
TestParameter, AutoAnalysis.Line1.Point1.Data.Var, 
TestParameter, AutoAnalysis.Line1.Point1.Data.Condition, 
TestParameter, AutoAnalysis.Line1.Point1.Data.Start, false
TestParameter, AutoAnalysis.Line1.Point1.Data.StartVar, 
TestParameter, AutoAnalysis.Line1.Point1.Data.StartCondition, 
TestParameter, AutoAnalysis.Line1.Point2.Type, 0
TestParameter, AutoAnalysis.Line1.Point2.XY.X, 
TestParameter, AutoAnalysis.Line1.Point2.XY.Y, 
TestParameter, AutoAnalysis.Line1.Point2.Data.Var, 
TestParameter, AutoAnalysis.Line1.Point2.Data.Condition, 
TestParameter, AutoAnalysis.Line1.Point2.Data.Start, false
TestParameter, AutoAnalysis.Line1.Point2.Data.StartVar, 
TestParameter, AutoAnalysis.Line1.Point2.Data.StartCondition, 
TestParameter, AutoAnalysis.Line1.GradientExpr, 0
TestParameter, AutoAnalysis.Line2.Enabled, false
TestParameter, AutoAnalysis.Line2.Type, 1
TestParameter, AutoAnalysis.Line2.Fix, True
TestParameter, AutoAnalysis.Line2.YAxis, 0
TestParameter, AutoAnalysis.Line2.Point1.Type, 0
TestParameter, AutoAnalysis.Line2.Point1.XY.X, 
TestParameter, AutoAnalysis.Line2.Point1.XY.Y, 
TestParameter, AutoAnalysis.Line2.Point1.Data.Var, 
TestParameter, AutoAnalysis.Line2.Point1.Data.Condition, 
TestParameter, AutoAnalysis.Line2.Point1.Data.Start, false
TestParameter, AutoAnalysis.Line2.Point1.Data.StartVar, 
TestParameter, AutoAnalysis.Line2.Point1.Data.StartCondition, 
TestParameter, AutoAnalysis.Line2.Point2.Type, 0
TestParameter, AutoAnalysis.Line2.Point2.XY.X, 
TestParameter, AutoAnalysis.Line2.Point2.XY.Y, 
TestParameter, AutoAnalysis.Line2.Point2.Data.Var, 
TestParameter, AutoAnalysis.Line2.Point2.Data.Condition, 
TestParameter, AutoAnalysis.Line2.Point2.Data.Start, false
TestParameter, AutoAnalysis.Line2.Point2.Data.StartVar, 
TestParameter, AutoAnalysis.Line2.Point2.Data.StartCondition, 
TestParameter, AutoAnalysis.Line2.GradientExpr, 0
TestParameter, AutoAnalysis.Marker.Enabled, false
TestParameter, AutoAnalysis.Marker.Data.Var, 
TestParameter, AutoAnalysis.Marker.Data.Condition, 
TestParameter, AutoAnalysis.Marker.Data.Start, false
TestParameter, AutoAnalysis.Marker.Data.StartVar, 
TestParameter, AutoAnalysis.Marker.Data.StartCondition, 
MetaData, TestRecord.EntryPoint, true
MetaData, TestRecord.RecordTime, 11/17/2023 13:17:38
MetaData, TestRecord.TestTarget, step4_1
MetaData, TestRecord.IterationIndex, 1
MetaData, TestRecord.Preservation, true
MetaData, TestRecord.Flag, 
MetaData, TestRecord.Remarks, 
MetaData, TestRecord.LinkKey, 4bc2deab-b447-40d1-b2b6-3d28099ba87e
Dimension1, 501, 501, 501, 501, 501
Dimension2, 6, 6, 6, 6, 6
DataName, VD, VS, ID, mID, VDS
DataValue, 2.5, 2.5, 2.2290999999999997E-11, -2.2290999999999997E-11, 0
DataValue, 2.495, 2.5, -6.09515E-10, 6.09515E-10, 0.00499999999999989
DataValue, 2.49, 2.5, -1.11276E-09, 1.11276E-09, 0.00999999999999979
DataValue, 2.485, 2.5, -1.52975E-09, 1.52975E-09, 0.0150000000000001
DataValue, 2.48, 2.5, -1.8892500000000003E-09, 1.8892500000000003E-09, 0.02
DataValue, 2.475, 2.5, -2.17676E-09, 2.17676E-09, 0.024999999999999897
DataValue, 2.47, 2.5, -2.4167200000000003E-09, 2.4167200000000003E-09, 0.0299999999999998
DataValue, 2.465, 2.5, -2.62404E-09, 2.62404E-09, 0.0350000000000001
DataValue, 2.46, 2.5, -2.7898000000000004E-09, 2.7898000000000004E-09, 0.04
DataValue, 2.455, 2.5, -2.92908E-09, 2.92908E-09, 0.0449999999999999
DataValue, 2.45, 2.5, -3.05041E-09, 3.05041E-09, 0.049999999999999795
DataValue, 2.445, 2.5, -3.14885E-09, 3.14885E-09, 0.055000000000000208
DataValue, 2.44, 2.5, -3.23121E-09, 3.23121E-09, 0.06
DataValue, 2.435, 2.5, -3.3034800000000003E-09, 3.3034800000000003E-09, 0.065
DataValue, 2.43, 2.5, -3.36264E-09, 3.36264E-09, 0.0699999999999998
DataValue, 2.425, 2.5, -3.4127900000000006E-09, 3.4127900000000006E-09, 0.0750000000000002
DataValue, 2.42, 2.5, -3.4577100000000005E-09, 3.4577100000000005E-09, 0.080000000000000113
DataValue, 2.415, 2.5, -3.4952700000000005E-09, 3.4952700000000005E-09, 0.085
DataValue, 2.41, 2.5, -3.5284900000000005E-09, 3.5284900000000005E-09, 0.0899999999999999
DataValue, 2.405, 2.5, -3.5573700000000005E-09, 3.5573700000000005E-09, 0.0950000000000002
DataValue, 2.4, 2.5, -3.5810700000000003E-09, 3.5810700000000003E-09, 0.1
DataValue, 2.395, 2.5, -3.6044E-09, 3.6044E-09, 0.10500000000000001
DataValue, 2.39, 2.5, -3.6237200000000004E-09, 3.6237200000000004E-09, 0.11000000000000001
DataValue, 2.385, 2.5, -3.64151E-09, 3.64151E-09, 0.11499999999999999
DataValue, 2.38, 2.5, -3.65802E-09, 3.65802E-09, 0.12
DataValue, 2.375, 2.5, -3.67277E-09, 3.67277E-09, 0.125
DataValue, 2.37, 2.5, -3.6868900000000003E-09, 3.6868900000000003E-09, 0.13
DataValue, 2.365, 2.5, -3.7004100000000005E-09, 3.7004100000000005E-09, 0.135
DataValue, 2.36, 2.5, -3.71267E-09, 3.71267E-09, 0.13999999999999999
DataValue, 2.355, 2.5, -3.7235900000000004E-09, 3.7235900000000004E-09, 0.145
DataValue, 2.35, 2.5, -3.73579E-09, 3.73579E-09, 0.15000000000000002
DataValue, 2.345, 2.5, -3.74599E-09, 3.74599E-09, 0.15500000000000003
DataValue, 2.34, 2.5, -3.75664E-09, 3.75664E-09, 0.16000000000000003
DataValue, 2.335, 2.5, -3.76683E-09, 3.76683E-09, 0.165
DataValue, 2.33, 2.5, -3.77608E-09, 3.77608E-09, 0.17
DataValue, 2.325, 2.5, -3.78542E-09, 3.78542E-09, 0.17500000000000002
DataValue, 2.32, 2.5, -3.79515E-09, 3.79515E-09, 0.18000000000000002
DataValue, 2.315, 2.5, -3.80409E-09, 3.80409E-09, 0.18500000000000003
DataValue, 2.31, 2.5, -3.8132E-09, 3.8132E-09, 0.19
DataValue, 2.305, 2.5, -3.82264E-09, 3.82264E-09, 0.195
DataValue, 2.3, 2.5, -3.8308600000000006E-09, 3.8308600000000006E-09, 0.2
DataValue, 2.295, 2.5, -3.83963E-09, 3.83963E-09, 0.205
DataValue, 2.29, 2.5, -3.84813E-09, 3.84813E-09, 0.21000000000000002
DataValue, 2.285, 2.5, -3.85754E-09, 3.85754E-09, 0.215
DataValue, 2.28, 2.5, -3.8655200000000005E-09, 3.8655200000000005E-09, 0.22000000000000003
DataValue, 2.275, 2.5, -3.8740600000000006E-09, 3.8740600000000006E-09, 0.225
DataValue, 2.27, 2.5, -3.88218E-09, 3.88218E-09, 0.22999999999999998
DataValue, 2.265, 2.5, -3.8906700000000006E-09, 3.8906700000000006E-09, 0.23500000000000001
DataValue, 2.26, 2.5, -3.89953E-09, 3.89953E-09, 0.24
DataValue, 2.255, 2.5, -3.90766E-09, 3.90766E-09, 0.24500000000000002
DataValue, 2.25, 2.5, -3.91594E-09, 3.91594E-09, 0.25
DataValue, 2.245, 2.5, -3.92453E-09, 3.92453E-09, 0.255
DataValue, 2.24, 2.5, -3.9327100000000006E-09, 3.9327100000000006E-09, 0.26
DataValue, 2.235, 2.5, -3.9422000000000007E-09, 3.9422000000000007E-09, 0.265
DataValue, 2.23, 2.5, -3.9498800000000004E-09, 3.9498800000000004E-09, 0.27
DataValue, 2.225, 2.5, -3.9572600000000005E-09, 3.9572600000000005E-09, 0.275
DataValue, 2.22, 2.5, -3.9666100000000006E-09, 3.9666100000000006E-09, 0.27999999999999997
DataValue, 2.215, 2.5, -3.9740100000000004E-09, 3.9740100000000004E-09, 0.28500000000000003
DataValue, 2.21, 2.5, -3.98223E-09, 3.98223E-09, 0.29
DataValue, 2.205, 2.5, -3.99044E-09, 3.99044E-09, 0.29500000000000004
DataValue, 2.2, 2.5, -3.9980000000000005E-09, 3.9980000000000005E-09, 0.30000000000000004
DataValue, 2.195, 2.5, -4.0064000000000006E-09, 4.0064000000000006E-09, 0.305
DataValue, 2.19, 2.5, -4.01444E-09, 4.01444E-09, 0.31000000000000005
DataValue, 2.185, 2.5, -4.0221900000000006E-09, 4.0221900000000006E-09, 0.315
DataValue, 2.18, 2.5, -4.0302600000000005E-09, 4.0302600000000005E-09, 0.32000000000000006
DataValue, 2.175, 2.5, -4.0384500000000007E-09, 4.0384500000000007E-09, 0.325
DataValue, 2.17, 2.5, -4.04596E-09, 4.04596E-09, 0.33
DataValue, 2.165, 2.5, -4.0540900000000008E-09, 4.0540900000000008E-09, 0.335
DataValue, 2.16, 2.5, -4.0616300000000006E-09, 4.0616300000000006E-09, 0.34
DataValue, 2.155, 2.5, -4.07019E-09, 4.07019E-09, 0.34500000000000003
DataValue, 2.15, 2.5, -4.0783800000000006E-09, 4.0783800000000006E-09, 0.35000000000000003
DataValue, 2.145, 2.5, -4.08544E-09, 4.08544E-09, 0.355
DataValue, 2.14, 2.5, -4.0934900000000005E-09, 4.0934900000000005E-09, 0.36000000000000004
DataValue, 2.135, 2.5, -4.10225E-09, 4.10225E-09, 0.365
DataValue, 2.13, 2.5, -4.10973E-09, 4.10973E-09, 0.37000000000000005
DataValue, 2.125, 2.5, -4.11733E-09, 4.11733E-09, 0.375
DataValue, 2.12, 2.5, -4.1258999999999996E-09, 4.1258999999999996E-09, 0.38
DataValue, 2.115, 2.5, -4.1327E-09, 4.1327E-09, 0.385
DataValue, 2.11, 2.5, -4.14089E-09, 4.14089E-09, 0.39
DataValue, 2.105, 2.5, -4.1486E-09, 4.1486E-09, 0.395
DataValue, 2.1, 2.5, -4.15724E-09, 4.15724E-09, 0.4
DataValue, 2.095, 2.5, -4.1647999999999995E-09, 4.1647999999999995E-09, 0.405
DataValue, 2.09, 2.5, -4.17206E-09, 4.17206E-09, 0.41
DataValue, 2.085, 2.5, -4.17953E-09, 4.17953E-09, 0.41500000000000004
DataValue, 2.08, 2.5, -4.18813E-09, 4.18813E-09, 0.42000000000000004
DataValue, 2.075, 2.5, -4.19579E-09, 4.19579E-09, 0.42500000000000004
DataValue, 2.07, 2.5, -4.20363E-09, 4.20363E-09, 0.43
DataValue, 2.065, 2.5, -4.2115E-09, 4.2115E-09, 0.435
DataValue, 2.06, 2.5, -4.21892E-09, 4.21892E-09, 0.44000000000000006
DataValue, 2.055, 2.5, -4.22624E-09, 4.22624E-09, 0.44500000000000006
DataValue, 2.05, 2.5, -4.2346300000000007E-09, 4.2346300000000007E-09, 0.45
DataValue, 2.045, 2.5, -4.24177E-09, 4.24177E-09, 0.455
DataValue, 2.04, 2.5, -4.24986E-09, 4.24986E-09, 0.45999999999999996
DataValue, 2.035, 2.5, -4.25793E-09, 4.25793E-09, 0.46500000000000008
DataValue, 2.03, 2.5, -4.26489E-09, 4.26489E-09, 0.47000000000000003
DataValue, 2.025, 2.5, -4.27321E-09, 4.27321E-09, 0.47500000000000003
DataValue, 2.02, 2.5, -4.2809E-09, 4.2809E-09, 0.48
DataValue, 2.015, 2.5, -4.28785E-09, 4.28785E-09, 0.485
DataValue, 2.01, 2.5, -4.29633E-09, 4.29633E-09, 0.49000000000000005
DataValue, 2.005, 2.5, -4.30305E-09, 4.30305E-09, 0.49500000000000005
DataValue, 2, 2.5, -4.31068E-09, 4.31068E-09, 0.5
DataValue, 1.995, 2.5, -4.31827E-09, 4.31827E-09, 0.505
DataValue, 1.99, 2.5, -4.32661E-09, 4.32661E-09, 0.51
DataValue, 1.985, 2.5, -4.33366E-09, 4.33366E-09, 0.515
DataValue, 1.98, 2.5, -4.34116E-09, 4.34116E-09, 0.52
DataValue, 1.975, 2.5, -4.3491500000000004E-09, 4.3491500000000004E-09, 0.525
DataValue, 1.97, 2.5, -4.35616E-09, 4.35616E-09, 0.53
DataValue, 1.965, 2.5, -4.3644E-09, 4.3644E-09, 0.535
DataValue, 1.96, 2.5, -4.371800000000001E-09, 4.371800000000001E-09, 0.54
DataValue, 1.955, 2.5, -4.3793600000000005E-09, 4.3793600000000005E-09, 0.545
DataValue, 1.95, 2.5, -4.3873E-09, 4.3873E-09, 0.55
DataValue, 1.945, 2.5, -4.3947300000000006E-09, 4.3947300000000006E-09, 0.555
DataValue, 1.94, 2.5, -4.4022500000000006E-09, 4.4022500000000006E-09, 0.55999999999999994
DataValue, 1.935, 2.5, -4.41029E-09, 4.41029E-09, 0.56500000000000006
DataValue, 1.93, 2.5, -4.4172900000000006E-09, 4.4172900000000006E-09, 0.57000000000000006
DataValue, 1.925, 2.5, -4.4248200000000004E-09, 4.4248200000000004E-09, 0.57500000000000007
DataValue, 1.92, 2.5, -4.4327E-09, 4.4327E-09, 0.58
DataValue, 1.915, 2.5, -4.4401000000000008E-09, 4.4401000000000008E-09, 0.585
DataValue, 1.91, 2.5, -4.44768E-09, 4.44768E-09, 0.59000000000000008
DataValue, 1.905, 2.5, -4.45512E-09, 4.45512E-09, 0.59500000000000008
DataValue, 1.9, 2.5, -4.46226E-09, 4.46226E-09, 0.60000000000000009
DataValue, 1.895, 2.5, -4.47084E-09, 4.47084E-09, 0.605
DataValue, 1.89, 2.5, -4.4781400000000004E-09, 4.4781400000000004E-09, 0.61
DataValue, 1.885, 2.5, -4.48614E-09, 4.48614E-09, 0.6150000000000001
DataValue, 1.88, 2.5, -4.49276E-09, 4.49276E-09, 0.62000000000000011
DataValue, 1.875, 2.5, -4.5001400000000006E-09, 4.5001400000000006E-09, 0.625
DataValue, 1.87, 2.5, -4.50789E-09, 4.50789E-09, 0.63
DataValue, 1.865, 2.5, -4.5160400000000009E-09, 4.5160400000000009E-09, 0.635
DataValue, 1.86, 2.5, -4.52384E-09, 4.52384E-09, 0.64000000000000012
DataValue, 1.855, 2.5, -4.53045E-09, 4.53045E-09, 0.645
DataValue, 1.85, 2.5, -4.5380100000000005E-09, 4.5380100000000005E-09, 0.65
DataValue, 1.845, 2.5, -4.5457E-09, 4.5457E-09, 0.655
DataValue, 1.84, 2.5, -4.5535300000000005E-09, 4.5535300000000005E-09, 0.66
DataValue, 1.835, 2.5, -4.5607E-09, 4.5607E-09, 0.665
DataValue, 1.83, 2.5, -4.5679E-09, 4.5679E-09, 0.67
DataValue, 1.825, 2.5, -4.57613E-09, 4.57613E-09, 0.675
DataValue, 1.82, 2.5, -4.58341E-09, 4.58341E-09, 0.68
DataValue, 1.815, 2.5, -4.5904400000000005E-09, 4.5904400000000005E-09, 0.685
DataValue, 1.81, 2.5, -4.59845E-09, 4.59845E-09, 0.69000000000000006
DataValue, 1.805, 2.5, -4.6056800000000006E-09, 4.6056800000000006E-09, 0.69500000000000006
DataValue, 1.8, 2.5, -4.61289E-09, 4.61289E-09, 0.70000000000000007
DataValue, 1.795, 2.5, -4.62001E-09, 4.62001E-09, 0.70500000000000007
DataValue, 1.79, 2.5, -4.6273E-09, 4.6273E-09, 0.71
DataValue, 1.785, 2.5, -4.63477E-09, 4.63477E-09, 0.71500000000000008
DataValue, 1.78, 2.5, -4.64232E-09, 4.64232E-09, 0.72000000000000008
DataValue, 1.775, 2.5, -4.6498E-09, 4.6498E-09, 0.72500000000000009
DataValue, 1.77, 2.5, -4.656640000000001E-09, 4.656640000000001E-09, 0.73
DataValue, 1.765, 2.5, -4.66505E-09, 4.66505E-09, 0.735
DataValue, 1.76, 2.5, -4.67228E-09, 4.67228E-09, 0.7400000000000001
DataValue, 1.755, 2.5, -4.6797800000000006E-09, 4.6797800000000006E-09, 0.74500000000000011
DataValue, 1.75, 2.5, -4.68712E-09, 4.68712E-09, 0.75
DataValue, 1.745, 2.5, -4.69412E-09, 4.69412E-09, 0.755
DataValue, 1.74, 2.5, -4.70177E-09, 4.70177E-09, 0.76
DataValue, 1.735, 2.5, -4.7095900000000005E-09, 4.7095900000000005E-09, 0.76500000000000012
DataValue, 1.73, 2.5, -4.71634E-09, 4.71634E-09, 0.77
DataValue, 1.725, 2.5, -4.72499E-09, 4.72499E-09, 0.775
DataValue, 1.72, 2.5, -4.7314600000000005E-09, 4.7314600000000005E-09, 0.78
DataValue, 1.715, 2.5, -4.73929E-09, 4.73929E-09, 0.785
DataValue, 1.71, 2.5, -4.74689E-09, 4.74689E-09, 0.79
DataValue, 1.705, 2.5, -4.75385E-09, 4.75385E-09, 0.795
DataValue, 1.7, 2.5, -4.7611200000000006E-09, 4.7611200000000006E-09, 0.8
DataValue, 1.695, 2.5, -4.7690500000000006E-09, 4.7690500000000006E-09, 0.80500000000000016
DataValue, 1.69, 2.5, -4.77646E-09, 4.77646E-09, 0.81
DataValue, 1.685, 2.5, -4.7836600000000008E-09, 4.7836600000000008E-09, 0.81500000000000006
DataValue, 1.68, 2.5, -4.7912800000000004E-09, 4.7912800000000004E-09, 0.82
DataValue, 1.675, 2.5, -4.7983000000000007E-09, 4.7983000000000007E-09, 0.82500000000000007
DataValue, 1.67, 2.5, -4.80589E-09, 4.80589E-09, 0.83000000000000007
DataValue, 1.665, 2.5, -4.8136900000000006E-09, 4.8136900000000006E-09, 0.835
DataValue, 1.66, 2.5, -4.82082E-09, 4.82082E-09, 0.84000000000000008
DataValue, 1.655, 2.5, -4.82946E-09, 4.82946E-09, 0.845
DataValue, 1.65, 2.5, -4.83551E-09, 4.83551E-09, 0.85000000000000009
DataValue, 1.645, 2.5, -4.84372E-09, 4.84372E-09, 0.85500000000000009
DataValue, 1.64, 2.5, -4.85043E-09, 4.85043E-09, 0.86
DataValue, 1.635, 2.5, -4.8582000000000004E-09, 4.8582000000000004E-09, 0.8650000000000001
DataValue, 1.63, 2.5, -4.8651600000000006E-09, 4.8651600000000006E-09, 0.87
DataValue, 1.625, 2.5, -4.8725300000000008E-09, 4.8725300000000008E-09, 0.875
DataValue, 1.62, 2.5, -4.88019E-09, 4.88019E-09, 0.88000000000000012
DataValue, 1.615, 2.5, -4.8882000000000006E-09, 4.8882000000000006E-09, 0.885
DataValue, 1.61, 2.5, -4.8958E-09, 4.8958E-09, 0.89000000000000012
DataValue, 1.605, 2.5, -4.90227E-09, 4.90227E-09, 0.895
DataValue, 1.6, 2.5, -4.9098100000000004E-09, 4.9098100000000004E-09, 0.9
DataValue, 1.595, 2.5, -4.91707E-09, 4.91707E-09, 0.90500000000000014
DataValue, 1.59, 2.5, -4.92451E-09, 4.92451E-09, 0.91
DataValue, 1.585, 2.5, -4.93209E-09, 4.93209E-09, 0.915
DataValue, 1.58, 2.5, -4.9395800000000008E-09, 4.9395800000000008E-09, 0.91999999999999993
DataValue, 1.575, 2.5, -4.94688E-09, 4.94688E-09, 0.925
DataValue, 1.57, 2.5, -4.95454E-09, 4.95454E-09, 0.93000000000000016
DataValue, 1.565, 2.5, -4.9620900000000006E-09, 4.9620900000000006E-09, 0.935
DataValue, 1.56, 2.5, -4.96874E-09, 4.96874E-09, 0.94000000000000006
DataValue, 1.555, 2.5, -4.97585E-09, 4.97585E-09, 0.945
DataValue, 1.55, 2.5, -4.9843200000000004E-09, 4.9843200000000004E-09, 0.95000000000000007
DataValue, 1.545, 2.5, -4.99119E-09, 4.99119E-09, 0.95500000000000007
DataValue, 1.54, 2.5, -4.9988800000000004E-09, 4.9988800000000004E-09, 0.96
