
SetupTitle, PNP IC VCE
PrimitiveTest, I/V Sweep
TestParameter, Context.MainFrame, B1500A
TestParameter, Channel.UnitType, SMU, SMU, SMU, SMU
TestParameter, Channel.Unit, SMU1:MP, SMU2:MP, SMU3:MP, GNDU:GND
TestParameter, Channel.IName, IB, IE, IC, Isubst
TestParameter, Channel.VName, VB, VE, VC, Vsubst
TestParameter, Channel.Mode, I, V, V, COMMON
TestParameter, Channel.Func, VAR2, CONST, VAR1, CONST
TestParameter, Channel.Index, 
TestParameter, Channel.Time, 
TestParameter, Measurement.Port.Unit, SMU1:MP, SMU2:MP, SMU3:MP, GNDU:GND
TestParameter, Measurement.Port.SeriesResistor, NONE, NONE, NONE, NONE
TestParameter, Measurement.Port.Filter, ON, ON, ON, ON
TestParameter, Measurement.Primary.Locus, Single
TestParameter, Measurement.Primary.Scale, LINEAR
TestParameter, Measurement.Primary.Start, 3.3
TestParameter, Measurement.Primary.Stop, 0
TestParameter, Measurement.Primary.Step, -0.01
TestParameter, Measurement.Primary.Compliance, 0.011
TestParameter, Measurement.Primary.PowerCompliance, 0
TestParameter, Measurement.Aborting.Condition, CONTINUE AT ANY
TestParameter, Measurement.PostOutput.Value, START
TestParameter, Measurement.PostOutput.Retention, OFF
TestParameter, Measurement.Secondary.Start, -1E-06
TestParameter, Measurement.Secondary.Count, 6
TestParameter, Measurement.Secondary.Step, -4E-06
TestParameter, Measurement.Secondary.Compliance, 3.3000000000000003
TestParameter, Measurement.Secondary.PowerCompliance, 0
TestParameter, Measurement.Bias.Source, -1E-06, 3.3, 3.3, 0
TestParameter, Measurement.Bias.Compliance, 3.3000000000000003, 0.011, 0.011, 1
TestParameter, Measurement.Monitor.Unit, SMU1:MP, SMU2:MP, SMU3:MP, GNDU:GND
TestParameter, Measurement.Monitor.Adc, HR ADC, HR ADC, HR ADC, HR ADC
TestParameter, Measurement.Monitor.RangingMode, AUTO, AUTO, AUTO, LIMITED
TestParameter, Measurement.Monitor.RangeBoundary, , , , 1nA
TestParameter, Measurement.Timing.Hold, 0
TestParameter, Measurement.Timing.Delay, 0
TestParameter, Measurement.Adc.HighSpeed.Mode, AUTO
TestParameter, Measurement.Adc.HighSpeed.Coeff, 1
TestParameter, Measurement.Adc.HighResolution.AutoZero, OFF
TestParameter, Measurement.Adc.HighResolution.Mode, AUTO
TestParameter, Measurement.Adc.HighResolution.Coeff, 30
TestParameter, Measurement.WaitTime.Source.Coeff, 1
TestParameter, Measurement.WaitTime.Source.Offset, 0
TestParameter, Measurement.WaitTime.Monitor.Coeff, 1
TestParameter, Measurement.WaitTime.Monitor.Offset, 0
TestParameter, Function.User.Name, modIC, modVCE
TestParameter, Function.User.Unit, A, V
TestParameter, Function.User.Definition, abs(IC), abs(VC-VE)
TestParameter, Output.Graph.Enabled, true
TestParameter, Output.Graph.XAxis.Data, modVCE
TestParameter, Output.Graph.XAxis.Scale, Linear
TestParameter, Output.Graph.XAxis.Left, 0
TestParameter, Output.Graph.XAxis.Right, 3.3
TestParameter, Output.Graph.YAxis.Data, modIC
TestParameter, Output.Graph.YAxis.Scale, Linear
TestParameter, Output.Graph.YAxis.Bottom, 0
TestParameter, Output.Graph.YAxis.Top, 0.002
TestParameter, Output.Graph.YAxis.Group, 
TestParameter, AutoAnalysis.Interpolation, false
TestParameter, AutoAnalysis.Line1.Enabled, false
TestParameter, AutoAnalysis.Line1.Type, 1
TestParameter, AutoAnalysis.Line1.Fix, True
TestParameter, AutoAnalysis.Line1.YAxis, 0
TestParameter, AutoAnalysis.Line1.Point1.Type, 0
TestParameter, AutoAnalysis.Line1.Point1.XY.X, 
TestParameter, AutoAnalysis.Line1.Point1.XY.Y, 
TestParameter, AutoAnalysis.Line1.Point1.Data.Var, 
TestParameter, AutoAnalysis.Line1.Point1.Data.Condition, 
TestParameter, AutoAnalysis.Line1.Point1.Data.Start, false
TestParameter, AutoAnalysis.Line1.Point1.Data.StartVar, 
TestParameter, AutoAnalysis.Line1.Point1.Data.StartCondition, 
TestParameter, AutoAnalysis.Line1.Point2.Type, 0
TestParameter, AutoAnalysis.Line1.Point2.XY.X, 
TestParameter, AutoAnalysis.Line1.Point2.XY.Y, 
TestParameter, AutoAnalysis.Line1.Point2.Data.Var, 
TestParameter, AutoAnalysis.Line1.Point2.Data.Condition, 
TestParameter, AutoAnalysis.Line1.Point2.Data.Start, false
TestParameter, AutoAnalysis.Line1.Point2.Data.StartVar, 
TestParameter, AutoAnalysis.Line1.Point2.Data.StartCondition, 
TestParameter, AutoAnalysis.Line1.GradientExpr, 0
TestParameter, AutoAnalysis.Line2.Enabled, false
TestParameter, AutoAnalysis.Line2.Type, 1
TestParameter, AutoAnalysis.Line2.Fix, True
TestParameter, AutoAnalysis.Line2.YAxis, 0
TestParameter, AutoAnalysis.Line2.Point1.Type, 0
TestParameter, AutoAnalysis.Line2.Point1.XY.X, 
TestParameter, AutoAnalysis.Line2.Point1.XY.Y, 
TestParameter, AutoAnalysis.Line2.Point1.Data.Var, 
TestParameter, AutoAnalysis.Line2.Point1.Data.Condition, 
TestParameter, AutoAnalysis.Line2.Point1.Data.Start, false
TestParameter, AutoAnalysis.Line2.Point1.Data.StartVar, 
TestParameter, AutoAnalysis.Line2.Point1.Data.StartCondition, 
TestParameter, AutoAnalysis.Line2.Point2.Type, 0
TestParameter, AutoAnalysis.Line2.Point2.XY.X, 
TestParameter, AutoAnalysis.Line2.Point2.XY.Y, 
TestParameter, AutoAnalysis.Line2.Point2.Data.Var, 
TestParameter, AutoAnalysis.Line2.Point2.Data.Condition, 
TestParameter, AutoAnalysis.Line2.Point2.Data.Start, false
TestParameter, AutoAnalysis.Line2.Point2.Data.StartVar, 
TestParameter, AutoAnalysis.Line2.Point2.Data.StartCondition, 
TestParameter, AutoAnalysis.Line2.GradientExpr, 0
TestParameter, AutoAnalysis.Marker.Enabled, false
TestParameter, AutoAnalysis.Marker.Data.Var, 
TestParameter, AutoAnalysis.Marker.Data.Condition, 
TestParameter, AutoAnalysis.Marker.Data.Start, false
TestParameter, AutoAnalysis.Marker.Data.StartVar, 
TestParameter, AutoAnalysis.Marker.Data.StartCondition, 
MetaData, TestRecord.EntryPoint, true
MetaData, TestRecord.RecordTime, 11/17/2023 14:02:46
MetaData, TestRecord.TestTarget, step4_4
MetaData, TestRecord.IterationIndex, 1
MetaData, TestRecord.Preservation, true
MetaData, TestRecord.Flag, 
MetaData, TestRecord.Remarks, 
MetaData, TestRecord.LinkKey, 27385d52-c585-4573-9514-7b6075330112
Dimension1, 331, 331, 331, 331, 331
Dimension2, 6, 6, 6, 6, 6
DataName, VC, VE, IC, modIC, modVCE
DataValue, 3.3, 3.3, 2.31106E-06, 2.31106E-06, 0
DataValue, 3.29, 3.3, 6.3907E-07, 6.3907E-07, 0.00999999999999979
DataValue, 3.28, 3.3, -1.6281599999999999E-06, 1.6281599999999999E-06, 0.02
DataValue, 3.27, 3.3, -4.78226E-06, 4.78226E-06, 0.0299999999999998
DataValue, 3.26, 3.3, -8.97144E-06, 8.97144E-06, 0.04
DataValue, 3.25, 3.3, -1.4210000000000001E-05, 1.4210000000000001E-05, 0.049999999999999795
DataValue, 3.24, 3.3, -2.0753E-05, 2.0753E-05, 0.0599999999999996
DataValue, 3.23, 3.3, -2.8304000000000002E-05, 2.8304000000000002E-05, 0.0699999999999998
DataValue, 3.22, 3.3, -3.6342E-05, 3.6342E-05, 0.0799999999999996
DataValue, 3.21, 3.3, -4.4676000000000004E-05, 4.4676000000000004E-05, 0.0899999999999999
DataValue, 3.2, 3.3, -5.2594000000000005E-05, 5.2594000000000005E-05, 0.099999999999999589
DataValue, 3.19, 3.3, -5.9716E-05, 5.9716E-05, 0.11000000000000001
DataValue, 3.18, 3.3, -6.5657E-05, 6.5657E-05, 0.12
DataValue, 3.17, 3.3, -7.0609E-05, 7.0609E-05, 0.13
DataValue, 3.16, 3.3, -7.4517E-05, 7.4517E-05, 0.13999999999999999
DataValue, 3.15, 3.3, -7.7495E-05, 7.7495E-05, 0.15000000000000002
DataValue, 3.14, 3.3, -7.9813E-05, 7.9813E-05, 0.16000000000000003
DataValue, 3.13, 3.3, -8.1569E-05, 8.1569E-05, 0.17
DataValue, 3.12, 3.3, -8.2883E-05, 8.2883E-05, 0.18000000000000002
DataValue, 3.11, 3.3, -8.3905999999999993E-05, 8.3905999999999993E-05, 0.19
DataValue, 3.1, 3.3, -8.4689E-05, 8.4689E-05, 0.2
DataValue, 3.09, 3.3, -8.5295000000000016E-05, 8.5295000000000016E-05, 0.21000000000000002
DataValue, 3.08, 3.3, -8.576800000000001E-05, 8.576800000000001E-05, 0.22000000000000003
DataValue, 3.07, 3.3, -8.6156E-05, 8.6156E-05, 0.22999999999999998
DataValue, 3.06, 3.3, -8.6466E-05, 8.6466E-05, 0.24
DataValue, 3.05, 3.3, -8.6721000000000012E-05, 8.6721000000000012E-05, 0.25
DataValue, 3.04, 3.3, -8.6944E-05, 8.6944E-05, 0.26
DataValue, 3.03, 3.3, -8.7133000000000008E-05, 8.7133000000000008E-05, 0.27
DataValue, 3.02, 3.3, -8.7297E-05, 8.7297E-05, 0.27999999999999997
DataValue, 3.01, 3.3, -8.7442E-05, 8.7442E-05, 0.29
DataValue, 3, 3.3, -8.7578000000000008E-05, 8.7578000000000008E-05, 0.30000000000000004
DataValue, 2.99, 3.3, -8.77E-05, 8.77E-05, 0.31000000000000005
DataValue, 2.98, 3.3, -8.7810000000000015E-05, 8.7810000000000015E-05, 0.32000000000000006
DataValue, 2.97, 3.3, -8.791900000000001E-05, 8.791900000000001E-05, 0.33
DataValue, 2.96, 3.3, -8.8021E-05, 8.8021E-05, 0.34
DataValue, 2.95, 3.3, -8.811700000000001E-05, 8.811700000000001E-05, 0.35000000000000003
DataValue, 2.94, 3.3, -8.8210000000000011E-05, 8.8210000000000011E-05, 0.36000000000000004
DataValue, 2.93, 3.3, -8.83E-05, 8.83E-05, 0.37000000000000005
DataValue, 2.92, 3.3, -8.8388000000000022E-05, 8.8388000000000022E-05, 0.38
DataValue, 2.91, 3.3, -8.847E-05, 8.847E-05, 0.39
DataValue, 2.9, 3.3, -8.8554E-05, 8.8554E-05, 0.4
DataValue, 2.89, 3.3, -8.8635000000000008E-05, 8.8635000000000008E-05, 0.41
DataValue, 2.88, 3.3, -8.872E-05, 8.872E-05, 0.42000000000000004
DataValue, 2.87, 3.3, -8.8799E-05, 8.8799E-05, 0.43
DataValue, 2.86, 3.3, -8.8874E-05, 8.8874E-05, 0.44000000000000006
DataValue, 2.85, 3.3, -8.8948E-05, 8.8948E-05, 0.45
DataValue, 2.84, 3.3, -8.9025000000000009E-05, 8.9025000000000009E-05, 0.45999999999999996
DataValue, 2.83, 3.3, -8.9103E-05, 8.9103E-05, 0.47000000000000003
DataValue, 2.82, 3.3, -8.9175000000000013E-05, 8.9175000000000013E-05, 0.48
DataValue, 2.81, 3.3, -8.9250000000000015E-05, 8.9250000000000015E-05, 0.49000000000000005
DataValue, 2.8, 3.3, -8.9324E-05, 8.9324E-05, 0.5
DataValue, 2.79, 3.3, -8.9394E-05, 8.9394E-05, 0.51
DataValue, 2.78, 3.3, -8.9465000000000012E-05, 8.9465000000000012E-05, 0.52
DataValue, 2.77, 3.3, -8.9538E-05, 8.9538E-05, 0.53
DataValue, 2.76, 3.3, -8.9609000000000016E-05, 8.9609000000000016E-05, 0.54
DataValue, 2.75, 3.3, -8.9679E-05, 8.9679E-05, 0.55
DataValue, 2.74, 3.3, -8.9752E-05, 8.9752E-05, 0.55999999999999994
DataValue, 2.73, 3.3, -8.982100000000002E-05, 8.982100000000002E-05, 0.57000000000000006
DataValue, 2.72, 3.3, -8.9891000000000011E-05, 8.9891000000000011E-05, 0.58
DataValue, 2.71, 3.3, -8.9954000000000013E-05, 8.9954000000000013E-05, 0.59000000000000008
DataValue, 2.7, 3.3, -9.0024E-05, 9.0024E-05, 0.60000000000000009
DataValue, 2.69, 3.3, -9.0090000000000013E-05, 9.0090000000000013E-05, 0.61
DataValue, 2.68, 3.3, -9.0158000000000013E-05, 9.0158000000000013E-05, 0.62000000000000011
DataValue, 2.67, 3.3, -9.0226000000000013E-05, 9.0226000000000013E-05, 0.63
DataValue, 2.66, 3.3, -9.0293E-05, 9.0293E-05, 0.64000000000000012
DataValue, 2.65, 3.3, -9.0359000000000007E-05, 9.0359000000000007E-05, 0.65
DataValue, 2.64, 3.3, -9.0422E-05, 9.0422E-05, 0.66
DataValue, 2.63, 3.3, -9.049E-05, 9.049E-05, 0.67
DataValue, 2.62, 3.3, -9.0554000000000014E-05, 9.0554000000000014E-05, 0.68
DataValue, 2.61, 3.3, -9.0618E-05, 9.0618E-05, 0.69000000000000006
DataValue, 2.6, 3.3, -9.0681E-05, 9.0681E-05, 0.70000000000000007
DataValue, 2.59, 3.3, -9.0748E-05, 9.0748E-05, 0.71
DataValue, 2.58, 3.3, -9.081E-05, 9.081E-05, 0.72000000000000008
DataValue, 2.57, 3.3, -9.0872000000000007E-05, 9.0872000000000007E-05, 0.73
DataValue, 2.56, 3.3, -9.0933E-05, 9.0933E-05, 0.7400000000000001
DataValue, 2.55, 3.3, -9.099700000000001E-05, 9.099700000000001E-05, 0.75
DataValue, 2.54, 3.3, -9.1057000000000019E-05, 9.1057000000000019E-05, 0.76
DataValue, 2.53, 3.3, -9.1117000000000015E-05, 9.1117000000000015E-05, 0.77
DataValue, 2.52, 3.3, -9.1181E-05, 9.1181E-05, 0.78
DataValue, 2.51, 3.3, -9.1247000000000016E-05, 9.1247000000000016E-05, 0.79
DataValue, 2.5, 3.3, -9.1308000000000014E-05, 9.1308000000000014E-05, 0.8
DataValue, 2.49, 3.3, -9.1368E-05, 9.1368E-05, 0.81
DataValue, 2.48, 3.3, -9.1432000000000015E-05, 9.1432000000000015E-05, 0.82
DataValue, 2.47, 3.3, -9.1493000000000013E-05, 9.1493000000000013E-05, 0.83000000000000007
DataValue, 2.46, 3.3, -9.1553000000000009E-05, 9.1553000000000009E-05, 0.84000000000000008
DataValue, 2.45, 3.3, -9.1611E-05, 9.1611E-05, 0.85000000000000009
DataValue, 2.44, 3.3, -9.1673E-05, 9.1673E-05, 0.86
DataValue, 2.43, 3.3, -9.1731E-05, 9.1731E-05, 0.87
DataValue, 2.42, 3.3, -9.1796000000000014E-05, 9.1796000000000014E-05, 0.88000000000000012
DataValue, 2.41, 3.3, -9.1853E-05, 9.1853E-05, 0.89000000000000012
DataValue, 2.4, 3.3, -9.1907E-05, 9.1907E-05, 0.9
DataValue, 2.39, 3.3, -9.1969E-05, 9.1969E-05, 0.91
DataValue, 2.38, 3.3, -9.2027E-05, 9.2027E-05, 0.91999999999999993
DataValue, 2.37, 3.3, -9.2083E-05, 9.2083E-05, 0.93000000000000016
DataValue, 2.36, 3.3, -9.2146000000000022E-05, 9.2146000000000022E-05, 0.94000000000000006
DataValue, 2.35, 3.3, -9.2206E-05, 9.2206E-05, 0.95000000000000007
DataValue, 2.34, 3.3, -9.2260000000000015E-05, 9.2260000000000015E-05, 0.96
DataValue, 2.33, 3.3, -9.232E-05, 9.232E-05, 0.97
DataValue, 2.32, 3.3, -9.2378E-05, 9.2378E-05, 0.98000000000000009
DataValue, 2.31, 3.3, -9.2433E-05, 9.2433E-05, 0.9900000000000001
DataValue, 2.3, 3.3, -9.2492000000000008E-05, 9.2492000000000008E-05, 1
DataValue, 2.29, 3.3, -9.2549E-05, 9.2549E-05, 1.01
DataValue, 2.28, 3.3, -9.2606000000000014E-05, 9.2606000000000014E-05, 1.02
DataValue, 2.27, 3.3, -9.2658E-05, 9.2658E-05, 1.03
DataValue, 2.26, 3.3, -9.2716E-05, 9.2716E-05, 1.04
DataValue, 2.25, 3.3, -9.2773000000000015E-05, 9.2773000000000015E-05, 1.05
DataValue, 2.24, 3.3, -9.2831E-05, 9.2831E-05, 1.06
DataValue, 2.23, 3.3, -9.2886000000000018E-05, 9.2886000000000018E-05, 1.07
DataValue, 2.22, 3.3, -9.2939000000000013E-05, 9.2939000000000013E-05, 1.08
DataValue, 2.21, 3.3, -9.2995000000000013E-05, 9.2995000000000013E-05, 1.09
DataValue, 2.2, 3.3, -9.3055000000000009E-05, 9.3055000000000009E-05, 1.1
DataValue, 2.19, 3.3, -9.3108000000000017E-05, 9.3108000000000017E-05, 1.11
DataValue, 2.18, 3.3, -9.3162000000000014E-05, 9.3162000000000014E-05, 1.12
DataValue, 2.17, 3.3, -9.3218E-05, 9.3218E-05, 1.13
DataValue, 2.16, 3.3, -9.3272E-05, 9.3272E-05, 1.14
DataValue, 2.15, 3.3, -9.3326000000000007E-05, 9.3326000000000007E-05, 1.15
DataValue, 2.14, 3.3, -9.338300000000001E-05, 9.338300000000001E-05, 1.16
DataValue, 2.13, 3.3, -9.3437000000000007E-05, 9.3437000000000007E-05, 1.17
DataValue, 2.12, 3.3, -9.3492E-05, 9.3492E-05, 1.18
DataValue, 2.11, 3.3, -9.3547E-05, 9.3547E-05, 1.19
DataValue, 2.1, 3.3, -9.3602000000000016E-05, 9.3602000000000016E-05, 1.2
DataValue, 2.09, 3.3, -9.3651E-05, 9.3651E-05, 1.21
DataValue, 2.08, 3.3, -9.3711000000000011E-05, 9.3711000000000011E-05, 1.22
DataValue, 2.07, 3.3, -9.3757E-05, 9.3757E-05, 1.23
DataValue, 2.06, 3.3, -9.3813E-05, 9.3813E-05, 1.24
DataValue, 2.05, 3.3, -9.3867E-05, 9.3867E-05, 1.25
DataValue, 2.04, 3.3, -9.3923000000000015E-05, 9.3923000000000015E-05, 1.26
DataValue, 2.03, 3.3, -9.3975000000000021E-05, 9.3975000000000021E-05, 1.27
DataValue, 2.02, 3.3, -9.4027E-05, 9.4027E-05, 1.28
DataValue, 2.01, 3.3, -9.4081E-05, 9.4081E-05, 1.29
DataValue, 2, 3.3, -9.4135000000000019E-05, 9.4135000000000019E-05, 1.3
DataValue, 1.99, 3.3, -9.4185000000000007E-05, 9.4185000000000007E-05, 1.31
DataValue, 1.98, 3.3, -9.4235000000000008E-05, 9.4235000000000008E-05, 1.32
DataValue, 1.97, 3.3, -9.4286E-05, 9.4286E-05, 1.33
DataValue, 1.96, 3.3, -9.4336000000000013E-05, 9.4336000000000013E-05, 1.34
DataValue, 1.95, 3.3, -9.4390000000000009E-05, 9.4390000000000009E-05, 1.35
DataValue, 1.94, 3.3, -9.4441000000000013E-05, 9.4441000000000013E-05, 1.36
DataValue, 1.93, 3.3, -9.4493E-05, 9.4493E-05, 1.37
DataValue, 1.92, 3.3, -9.4549E-05, 9.4549E-05, 1.38
DataValue, 1.91, 3.3, -9.4599000000000007E-05, 9.4599000000000007E-05, 1.39
DataValue, 1.9, 3.3, -9.4653E-05, 9.4653E-05, 1.4
DataValue, 1.89, 3.3, -9.4701000000000014E-05, 9.4701000000000014E-05, 1.41
DataValue, 1.88, 3.3, -9.4756000000000012E-05, 9.4756000000000012E-05, 1.42
DataValue, 1.87, 3.3, -9.4805E-05, 9.4805E-05, 1.43
DataValue, 1.86, 3.3, -9.4851E-05, 9.4851E-05, 1.44
DataValue, 1.85, 3.3, -9.4906000000000016E-05, 9.4906000000000016E-05, 1.45
DataValue, 1.84, 3.3, -9.4961000000000015E-05, 9.4961000000000015E-05, 1.46
DataValue, 1.83, 3.3, -9.5012000000000018E-05, 9.5012000000000018E-05, 1.47
DataValue, 1.82, 3.3, -9.5062E-05, 9.5062E-05, 1.48
DataValue, 1.81, 3.3, -9.5108E-05, 9.5108E-05, 1.49
DataValue, 1.8, 3.3, -9.5161E-05, 9.5161E-05, 1.5
DataValue, 1.79, 3.3, -9.5210000000000018E-05, 9.5210000000000018E-05, 1.51
DataValue, 1.78, 3.3, -9.5267000000000008E-05, 9.5267000000000008E-05, 1.52
DataValue, 1.77, 3.3, -9.5313E-05, 9.5313E-05, 1.53
DataValue, 1.76, 3.3, -9.5364000000000017E-05, 9.5364000000000017E-05, 1.54
DataValue, 1.75, 3.3, -9.5415E-05, 9.5415E-05, 1.55
DataValue, 1.74, 3.3, -9.5463000000000018E-05, 9.5463000000000018E-05, 1.56
DataValue, 1.73, 3.3, -9.5513E-05, 9.5513E-05, 1.57
DataValue, 1.72, 3.3, -9.5568000000000017E-05, 9.5568000000000017E-05, 1.58
DataValue, 1.71, 3.3, -9.5616000000000014E-05, 9.5616000000000014E-05, 1.59
DataValue, 1.7, 3.3, -9.5664000000000011E-05, 9.5664000000000011E-05, 1.6
DataValue, 1.69, 3.3, -9.571300000000001E-05, 9.571300000000001E-05, 1.61
DataValue, 1.68, 3.3, -9.5764E-05, 9.5764E-05, 1.62
DataValue, 1.67, 3.3, -9.5813000000000013E-05, 9.5813000000000013E-05, 1.63
DataValue, 1.66, 3.3, -9.5863E-05, 9.5863E-05, 1.64
DataValue, 1.65, 3.3, -9.591E-05, 9.591E-05, 1.65
DataValue, 1.64, 3.3, -9.5961000000000012E-05, 9.5961000000000012E-05, 1.66
DataValue, 1.63, 3.3, -9.6009E-05, 9.6009E-05, 1.67
DataValue, 1.62, 3.3, -9.6056000000000017E-05, 9.6056000000000017E-05, 1.68
DataValue, 1.61, 3.3, -9.6109000000000011E-05, 9.6109000000000011E-05, 1.69
DataValue, 1.6, 3.3, -9.6159000000000012E-05, 9.6159000000000012E-05, 1.7
DataValue, 1.59, 3.3, -9.6206000000000007E-05, 9.6206000000000007E-05, 1.71
DataValue, 1.58, 3.3, -9.6251000000000011E-05, 9.6251000000000011E-05, 1.72
DataValue, 1.57, 3.3, -9.6302000000000014E-05, 9.6302000000000014E-05, 1.73
DataValue, 1.56, 3.3, -9.6349000000000009E-05, 9.6349000000000009E-05, 1.74
DataValue, 1.55, 3.3, -9.6400000000000012E-05, 9.6400000000000012E-05, 1.75
DataValue, 1.54, 3.3, -9.6445000000000016E-05, 9.6445000000000016E-05, 1.76
DataValue, 1.53, 3.3, -9.6495E-05, 9.6495E-05, 1.77
DataValue, 1.52, 3.3, -9.6545000000000018E-05, 9.6545000000000018E-05, 1.78
DataValue, 1.51, 3.3, -9.6592000000000013E-05, 9.6592000000000013E-05, 1.79
DataValue, 1.5, 3.3, -9.6642E-05, 9.6642E-05, 1.8
DataValue, 1.49, 3.3, -9.6690000000000011E-05, 9.6690000000000011E-05, 1.81
DataValue, 1.48, 3.3, -9.6734000000000013E-05, 9.6734000000000013E-05, 1.82
DataValue, 1.47, 3.3, -9.678200000000001E-05, 9.678200000000001E-05, 1.83
DataValue, 1.46, 3.3, -9.6833E-05, 9.6833E-05, 1.84
DataValue, 1.45, 3.3, -9.688100000000001E-05, 9.688100000000001E-05, 1.85
DataValue, 1.44, 3.3, -9.6928E-05, 9.6928E-05, 1.86
DataValue, 1.43, 3.3, -9.6981000000000012E-05, 9.6981000000000012E-05, 1.87
DataValue, 1.42, 3.3, -9.7025000000000014E-05, 9.7025000000000014E-05, 1.88
DataValue, 1.41, 3.3, -9.7073000000000011E-05, 9.7073000000000011E-05, 1.89
DataValue, 1.4, 3.3, -9.7119E-05, 9.7119E-05, 1.9
DataValue, 1.39, 3.3, -9.7166000000000011E-05, 9.7166000000000011E-05, 1.91
DataValue, 1.38, 3.3, -9.7216000000000012E-05, 9.7216000000000012E-05, 1.92
DataValue, 1.37, 3.3, -9.7260000000000014E-05, 9.7260000000000014E-05, 1.93
DataValue, 1.36, 3.3, -9.7303E-05, 9.7303E-05, 1.94
DataValue, 1.35, 3.3, -9.7353000000000015E-05, 9.7353000000000015E-05, 1.95
DataValue, 1.34, 3.3, -9.7396E-05, 9.7396E-05, 1.96
DataValue, 1.33, 3.3, -9.7449000000000008E-05, 9.7449000000000008E-05, 1.97
DataValue, 1.32, 3.3, -9.7494E-05, 9.7494E-05, 1.98
DataValue, 1.31, 3.3, -9.7544000000000013E-05, 9.7544000000000013E-05, 1.99
DataValue, 1.3, 3.3, -9.7589000000000017E-05, 9.7589000000000017E-05, 2
