
SetupTitle, NPN1 IC VCE
PrimitiveTest, I/V Sweep
TestParameter, Context.MainFrame, B1500A
TestParameter, Channel.UnitType, SMU, SMU, SMU, SMU
TestParameter, Channel.Unit, SMU1:MP, SMU2:MP, SMU3:MP, GNDU:GND
TestParameter, Channel.IName, IB, IE, IC, Isubst
TestParameter, Channel.VName, VB, VE, VC, Vsubst
TestParameter, Channel.Mode, I, V, V, COMMON
TestParameter, Channel.Func, VAR2, CONST, VAR1, CONST
TestParameter, Channel.Index, 
TestParameter, Channel.Time, 
TestParameter, Measurement.Port.Unit, SMU1:MP, SMU2:MP, SMU3:MP, GNDU:GND
TestParameter, Measurement.Port.SeriesResistor, NONE, NONE, NONE, NONE
TestParameter, Measurement.Port.Filter, ON, ON, ON, ON
TestParameter, Measurement.Primary.Locus, Single
TestParameter, Measurement.Primary.Scale, LINEAR
TestParameter, Measurement.Primary.Start, 0
TestParameter, Measurement.Primary.Stop, 3
TestParameter, Measurement.Primary.Step, 0.01
TestParameter, Measurement.Primary.Compliance, 0.1
TestParameter, Measurement.Primary.PowerCompliance, 0
TestParameter, Measurement.Aborting.Condition, CONTINUE AT ANY
TestParameter, Measurement.PostOutput.Value, START
TestParameter, Measurement.PostOutput.Retention, OFF
TestParameter, Measurement.Secondary.Start, 1E-06
TestParameter, Measurement.Secondary.Count, 6
TestParameter, Measurement.Secondary.Step, 2E-06
TestParameter, Measurement.Secondary.Compliance, 2
TestParameter, Measurement.Secondary.PowerCompliance, 0
TestParameter, Measurement.Bias.Source, 1E-06, 0, 0, 0
TestParameter, Measurement.Bias.Compliance, 2, 0.1, 0.1, 1
TestParameter, Measurement.Monitor.Unit, SMU1:MP, SMU2:MP, SMU3:MP, GNDU:GND
TestParameter, Measurement.Monitor.Adc, HR ADC, HR ADC, HR ADC, HR ADC
TestParameter, Measurement.Monitor.RangingMode, AUTO, LIMITED, LIMITED, LIMITED
TestParameter, Measurement.Monitor.RangeBoundary, , 1nA, 1nA, 1nA
TestParameter, Measurement.Timing.Hold, 0
TestParameter, Measurement.Timing.Delay, 0
TestParameter, Measurement.Adc.HighSpeed.Mode, AUTO
TestParameter, Measurement.Adc.HighSpeed.Coeff, 1
TestParameter, Measurement.Adc.HighResolution.AutoZero, OFF
TestParameter, Measurement.Adc.HighResolution.Mode, AUTO
TestParameter, Measurement.Adc.HighResolution.Coeff, 6
TestParameter, Measurement.WaitTime.Source.Coeff, 1
TestParameter, Measurement.WaitTime.Source.Offset, 0
TestParameter, Measurement.WaitTime.Monitor.Coeff, 1
TestParameter, Measurement.WaitTime.Monitor.Offset, 0
TestParameter, Output.Graph.Enabled, true
TestParameter, Output.Graph.XAxis.Data, VC
TestParameter, Output.Graph.XAxis.Scale, Linear
TestParameter, Output.Graph.XAxis.Left, 0
TestParameter, Output.Graph.XAxis.Right, 3
TestParameter, Output.Graph.YAxis.Data, IC
TestParameter, Output.Graph.YAxis.Scale, Linear
TestParameter, Output.Graph.YAxis.Bottom, 0
TestParameter, Output.Graph.YAxis.Top, 0.01
TestParameter, Output.Graph.YAxis.Group, 
TestParameter, AutoAnalysis.Interpolation, false
TestParameter, AutoAnalysis.Line1.Enabled, false
TestParameter, AutoAnalysis.Line1.Type, 1
TestParameter, AutoAnalysis.Line1.Fix, True
TestParameter, AutoAnalysis.Line1.YAxis, 0
TestParameter, AutoAnalysis.Line1.Point1.Type, 0
TestParameter, AutoAnalysis.Line1.Point1.XY.X, 
TestParameter, AutoAnalysis.Line1.Point1.XY.Y, 
TestParameter, AutoAnalysis.Line1.Point1.Data.Var, 
TestParameter, AutoAnalysis.Line1.Point1.Data.Condition, 
TestParameter, AutoAnalysis.Line1.Point1.Data.Start, false
TestParameter, AutoAnalysis.Line1.Point1.Data.StartVar, 
TestParameter, AutoAnalysis.Line1.Point1.Data.StartCondition, 
TestParameter, AutoAnalysis.Line1.Point2.Type, 0
TestParameter, AutoAnalysis.Line1.Point2.XY.X, 
TestParameter, AutoAnalysis.Line1.Point2.XY.Y, 
TestParameter, AutoAnalysis.Line1.Point2.Data.Var, 
TestParameter, AutoAnalysis.Line1.Point2.Data.Condition, 
TestParameter, AutoAnalysis.Line1.Point2.Data.Start, false
TestParameter, AutoAnalysis.Line1.Point2.Data.StartVar, 
TestParameter, AutoAnalysis.Line1.Point2.Data.StartCondition, 
TestParameter, AutoAnalysis.Line1.GradientExpr, 0
TestParameter, AutoAnalysis.Line2.Enabled, false
TestParameter, AutoAnalysis.Line2.Type, 1
TestParameter, AutoAnalysis.Line2.Fix, True
TestParameter, AutoAnalysis.Line2.YAxis, 0
TestParameter, AutoAnalysis.Line2.Point1.Type, 0
TestParameter, AutoAnalysis.Line2.Point1.XY.X, 
TestParameter, AutoAnalysis.Line2.Point1.XY.Y, 
TestParameter, AutoAnalysis.Line2.Point1.Data.Var, 
TestParameter, AutoAnalysis.Line2.Point1.Data.Condition, 
TestParameter, AutoAnalysis.Line2.Point1.Data.Start, false
TestParameter, AutoAnalysis.Line2.Point1.Data.StartVar, 
TestParameter, AutoAnalysis.Line2.Point1.Data.StartCondition, 
TestParameter, AutoAnalysis.Line2.Point2.Type, 0
TestParameter, AutoAnalysis.Line2.Point2.XY.X, 
TestParameter, AutoAnalysis.Line2.Point2.XY.Y, 
TestParameter, AutoAnalysis.Line2.Point2.Data.Var, 
TestParameter, AutoAnalysis.Line2.Point2.Data.Condition, 
TestParameter, AutoAnalysis.Line2.Point2.Data.Start, false
TestParameter, AutoAnalysis.Line2.Point2.Data.StartVar, 
TestParameter, AutoAnalysis.Line2.Point2.Data.StartCondition, 
TestParameter, AutoAnalysis.Line2.GradientExpr, 0
TestParameter, AutoAnalysis.Marker.Enabled, false
TestParameter, AutoAnalysis.Marker.Data.Var, 
TestParameter, AutoAnalysis.Marker.Data.Condition, 
TestParameter, AutoAnalysis.Marker.Data.Start, false
TestParameter, AutoAnalysis.Marker.Data.StartVar, 
TestParameter, AutoAnalysis.Marker.Data.StartCondition, 
MetaData, TestRecord.EntryPoint, true
MetaData, TestRecord.RecordTime, 11/17/2023 14:16:29
MetaData, TestRecord.TestTarget, step4_5
MetaData, TestRecord.IterationIndex, 1
MetaData, TestRecord.Preservation, true
MetaData, TestRecord.Flag, 
MetaData, TestRecord.Remarks, 
MetaData, TestRecord.LinkKey, 625136a3-1cdf-4af5-88f2-4bde0bd76b57
Dimension1, 301, 301
Dimension2, 6, 6
DataName, VC, IC
DataValue, 0, -3.4622E-07
DataValue, 0.01, 7.6347E-06
DataValue, 0.02, 1.8686E-05
DataValue, 0.03, 3.3306E-05
DataValue, 0.04, 5.3036000000000005E-05
DataValue, 0.05, 7.8544000000000012E-05
DataValue, 0.06, 0.000110402
DataValue, 0.07, 0.00014848
DataValue, 0.08, 0.00019218
DataValue, 0.09, 0.00023906
DataValue, 0.1, 0.00028568
DataValue, 0.11000000000000001, 0.00033074
DataValue, 0.12, 0.00037132
DataValue, 0.13, 0.00040528000000000005
DataValue, 0.13999999999999999, 0.00043364000000000006
DataValue, 0.15000000000000002, 0.00045618
DataValue, 0.16000000000000003, 0.00047362000000000006
DataValue, 0.17, 0.00048648
DataValue, 0.18000000000000002, 0.00049656000000000006
DataValue, 0.19, 0.00050402
DataValue, 0.2, 0.00050954
DataValue, 0.21000000000000002, 0.00051396
DataValue, 0.22000000000000003, 0.00051734
DataValue, 0.22999999999999998, 0.00052012
DataValue, 0.24, 0.0005222400000000001
DataValue, 0.25, 0.00052402
DataValue, 0.26, 0.0005255
DataValue, 0.27, 0.00052664
DataValue, 0.27999999999999997, 0.00052786
DataValue, 0.29, 0.00052884
DataValue, 0.30000000000000004, 0.00052960000000000008
DataValue, 0.31000000000000005, 0.00053054
DataValue, 0.32000000000000006, 0.0005312400000000001
DataValue, 0.33, 0.0005321
DataValue, 0.34, 0.0005325000000000001
DataValue, 0.35000000000000003, 0.00053312
DataValue, 0.36000000000000004, 0.000534
DataValue, 0.37000000000000005, 0.00053428
DataValue, 0.38, 0.00053474
DataValue, 0.39, 0.0005354
DataValue, 0.4, 0.00053566000000000009
DataValue, 0.41, 0.00053622
DataValue, 0.42000000000000004, 0.00053666
DataValue, 0.43, 0.00053712
DataValue, 0.44000000000000006, 0.00053758000000000007
DataValue, 0.45, 0.00053776000000000008
DataValue, 0.45999999999999996, 0.00053828
DataValue, 0.47000000000000003, 0.00053858
DataValue, 0.48, 0.0005389
DataValue, 0.49000000000000005, 0.00053954
DataValue, 0.5, 0.00053948000000000006
DataValue, 0.51, 0.00053998
DataValue, 0.52, 0.00054036
DataValue, 0.53, 0.0005406
DataValue, 0.54, 0.00054088000000000009
DataValue, 0.55, 0.00054106
DataValue, 0.55999999999999994, 0.00054144
DataValue, 0.57000000000000006, 0.0005417
DataValue, 0.58, 0.00054216
DataValue, 0.59000000000000008, 0.00054244
DataValue, 0.60000000000000009, 0.00054260000000000007
DataValue, 0.61, 0.00054262
DataValue, 0.62000000000000011, 0.00054296
DataValue, 0.63, 0.0005433
DataValue, 0.64000000000000012, 0.00054356
DataValue, 0.65, 0.00054378
DataValue, 0.66, 0.00054388
DataValue, 0.67, 0.00054414
DataValue, 0.68, 0.00054436
DataValue, 0.69000000000000006, 0.00054454
DataValue, 0.70000000000000007, 0.00054476
DataValue, 0.71, 0.00054486
DataValue, 0.72000000000000008, 0.00054494
DataValue, 0.73, 0.00054542
DataValue, 0.7400000000000001, 0.00054536
DataValue, 0.75, 0.0005456
DataValue, 0.76, 0.00054562
DataValue, 0.77, 0.00054616
DataValue, 0.78, 0.00054632
DataValue, 0.79, 0.00054626
DataValue, 0.8, 0.00054642
DataValue, 0.81, 0.0005465200000000001
DataValue, 0.82, 0.00054692
DataValue, 0.83000000000000007, 0.0005467
DataValue, 0.84000000000000008, 0.00054704
DataValue, 0.85000000000000009, 0.00054732
DataValue, 0.86, 0.00054732
DataValue, 0.87, 0.00054746
DataValue, 0.88000000000000012, 0.0005477
DataValue, 0.89000000000000012, 0.00054746
DataValue, 0.9, 0.00054768
DataValue, 0.91, 0.0005479
DataValue, 0.91999999999999993, 0.00054832
DataValue, 0.93000000000000016, 0.00054824000000000008
DataValue, 0.94000000000000006, 0.00054856
DataValue, 0.95000000000000007, 0.00054838
DataValue, 0.96, 0.00054864
DataValue, 0.97, 0.00054888000000000007
DataValue, 0.98000000000000009, 0.00054892
DataValue, 0.9900000000000001, 0.000549
DataValue, 1, 0.0005491
DataValue, 1.01, 0.00054934
DataValue, 1.02, 0.00054934
DataValue, 1.03, 0.00054944
DataValue, 1.04, 0.00054944
DataValue, 1.05, 0.00054964000000000011
DataValue, 1.06, 0.00054978
DataValue, 1.07, 0.00054992000000000007
DataValue, 1.08, 0.00055010000000000009
DataValue, 1.09, 0.00054997999999999994
DataValue, 1.1, 0.00055010000000000009
DataValue, 1.11, 0.0005503
DataValue, 1.12, 0.0005505
DataValue, 1.13, 0.00055044
DataValue, 1.14, 0.00055058000000000006
DataValue, 1.15, 0.00055056000000000007
DataValue, 1.16, 0.0005508
DataValue, 1.17, 0.00055086
DataValue, 1.18, 0.00055088
DataValue, 1.19, 0.00055084
DataValue, 1.2, 0.00055104
DataValue, 1.21, 0.00055114
DataValue, 1.22, 0.0005513
DataValue, 1.23, 0.00055134
DataValue, 1.24, 0.00055154
DataValue, 1.25, 0.00055148
DataValue, 1.26, 0.00055162000000000006
DataValue, 1.27, 0.00055148
DataValue, 1.28, 0.00055182000000000007
DataValue, 1.29, 0.00055188
DataValue, 1.3, 0.00055202000000000007
DataValue, 1.31, 0.00055188
DataValue, 1.32, 0.00055196
DataValue, 1.33, 0.00055214
DataValue, 1.34, 0.00055216000000000011
DataValue, 1.35, 0.00055214
DataValue, 1.36, 0.00055246000000000006
DataValue, 1.37, 0.0005524
DataValue, 1.38, 0.00055248
DataValue, 1.39, 0.0005526
DataValue, 1.4, 0.00055272
DataValue, 1.41, 0.00055268
DataValue, 1.42, 0.0005529
DataValue, 1.43, 0.00055282
DataValue, 1.44, 0.00055298
DataValue, 1.45, 0.00055288000000000006
DataValue, 1.46, 0.00055308000000000006
DataValue, 1.47, 0.00055306
DataValue, 1.48, 0.00055322
DataValue, 1.49, 0.00055330000000000006
DataValue, 1.5, 0.00055326000000000008
DataValue, 1.51, 0.00055338
DataValue, 1.52, 0.00055351999999999995
DataValue, 1.53, 0.00055344
DataValue, 1.54, 0.00055351999999999995
DataValue, 1.55, 0.00055344
DataValue, 1.56, 0.00055366
DataValue, 1.57, 0.00055384
DataValue, 1.58, 0.00055376
DataValue, 1.59, 0.00055388000000000008
DataValue, 1.6, 0.00055398
DataValue, 1.61, 0.00055386
DataValue, 1.62, 0.00055393999999999994
DataValue, 1.63, 0.00055430000000000008
DataValue, 1.64, 0.00055430000000000008
DataValue, 1.65, 0.00055424
DataValue, 1.66, 0.00055446
DataValue, 1.67, 0.00055418
DataValue, 1.68, 0.00055444000000000012
DataValue, 1.69, 0.0005546
DataValue, 1.7, 0.00055472000000000008
DataValue, 1.71, 0.00055458
DataValue, 1.72, 0.00055486000000000012
DataValue, 1.73, 0.00055468
DataValue, 1.74, 0.00055452000000000008
DataValue, 1.75, 0.0005551
DataValue, 1.76, 0.00055516
DataValue, 1.77, 0.00055518000000000006
DataValue, 1.78, 0.00055526
DataValue, 1.79, 0.00055540000000000006
DataValue, 1.8, 0.00055538
DataValue, 1.81, 0.00055544
DataValue, 1.82, 0.00055576
DataValue, 1.83, 0.00055584
DataValue, 1.84, 0.0005557400000000001
DataValue, 1.85, 0.0005559
DataValue, 1.86, 0.00055603999999999994
DataValue, 1.87, 0.00055596
DataValue, 1.88, 0.00055618
DataValue, 1.89, 0.0005563
DataValue, 1.9, 0.00055638
DataValue, 1.91, 0.00055632
DataValue, 1.92, 0.00055662000000000007
DataValue, 1.93, 0.00055664
DataValue, 1.94, 0.00055662000000000007
DataValue, 1.95, 0.00055700000000000009
DataValue, 1.96, 0.00055692
DataValue, 1.97, 0.00055726000000000007
DataValue, 1.98, 0.00055734
DataValue, 1.99, 0.00055770000000000006
DataValue, 2, 0.00055772
DataValue, 2.01, 0.00055784000000000009
DataValue, 2.02, 0.00055788000000000007
DataValue, 2.03, 0.00055822
DataValue, 2.04, 0.00055832
DataValue, 2.05, 0.0005586
DataValue, 2.06, 0.00055874
DataValue, 2.07, 0.00055876
DataValue, 2.08, 0.00055914000000000007
DataValue, 2.09, 0.00055942
DataValue, 2.1, 0.00055938000000000006
DataValue, 2.11, 0.00055980000000000005
DataValue, 2.12, 0.00056002
DataValue, 2.13, 0.00056016000000000008
DataValue, 2.14, 0.00056044
DataValue, 2.15, 0.00056074
DataValue, 2.16, 0.00056078000000000009
DataValue, 2.17, 0.00056128
DataValue, 2.18, 0.0005614
DataValue, 2.19, 0.00056178
DataValue, 2.2, 0.00056216
DataValue, 2.21, 0.00056224
DataValue, 2.22, 0.00056276
DataValue, 2.23, 0.00056308
DataValue, 2.24, 0.00056326
DataValue, 2.25, 0.00056382
DataValue, 2.26, 0.00056426
DataValue, 2.27, 0.00056454000000000009
DataValue, 2.28, 0.0005647400000000001
DataValue, 2.29, 0.00056525999999999994
DataValue, 2.3, 0.00056582
DataValue, 2.31, 0.0005662
DataValue, 2.32, 0.00056688000000000007
DataValue, 2.33, 0.00056724
DataValue, 2.34, 0.00056768
DataValue, 2.35, 0.00056818
DataValue, 2.36, 0.00056868
DataValue, 2.37, 0.00056926
DataValue, 2.38, 0.00056972
DataValue, 2.39, 0.00057036
DataValue, 2.4, 0.00057088000000000006
DataValue, 2.41, 0.00057142
DataValue, 2.42, 0.0005722
DataValue, 2.43, 0.00057278000000000006
DataValue, 2.44, 0.0005737
DataValue, 2.45, 0.00057402
DataValue, 2.46, 0.00057472
DataValue, 2.47, 0.00057562
DataValue, 2.48, 0.00057628000000000009
DataValue, 2.49, 0.00057702
DataValue, 2.5, 0.00057796000000000008
DataValue, 2.51, 0.00057888
DataValue, 2.52, 0.0005795
DataValue, 2.53, 0.0005808
DataValue, 2.54, 0.0005813
DataValue, 2.55, 0.00058248
DataValue, 2.56, 0.00058334
DataValue, 2.57, 0.00058448000000000007
DataValue, 2.58, 0.00058534
DataValue, 2.59, 0.00058642
DataValue, 2.6, 0.00058762
DataValue, 2.61, 0.00058876
DataValue, 2.62, 0.00059002
DataValue, 2.63, 0.00059102
DataValue, 2.64, 0.00059226
DataValue, 2.65, 0.00059374
DataValue, 2.66, 0.00059482
DataValue, 2.67, 0.00059612
DataValue, 2.68, 0.00059754
DataValue, 2.69, 0.00059906
DataValue, 2.7, 0.00060072
DataValue, 2.71, 0.0006022
DataValue, 2.72, 0.00060366
DataValue, 2.73, 0.0006053600000000001
DataValue, 2.74, 0.00060698
DataValue, 2.75, 0.00060868
DataValue, 2.76, 0.00061034
DataValue, 2.77, 0.00061228
DataValue, 2.78, 0.00061420000000000008
DataValue, 2.79, 0.00061582
DataValue, 2.8, 0.000618
DataValue, 2.81, 0.00061998
DataValue, 2.82, 0.00062194000000000008
DataValue, 2.83, 0.00062452
DataValue, 2.84, 0.00062666
DataValue, 2.85, 0.00062862
DataValue, 2.86, 0.00063140000000000006
DataValue, 2.87, 0.00063348000000000007
DataValue, 2.88, 0.00063620000000000007
DataValue, 2.89, 0.00063884
DataValue, 2.9, 0.0006415
DataValue, 2.91, 0.00064432
DataValue, 2.92, 0.00064722
DataValue, 2.93, 0.00064998
DataValue, 2.94, 0.00065314
DataValue, 2.95, 0.00065622
DataValue, 2.96, 0.00065926000000000005
DataValue, 2.97, 0.00066246
DataValue, 2.98, 0.00066618
DataValue, 2.99, 0.00066944
DataValue, 3, 0.00067314
DataValue, 0, -1.2865999999999999E-06
DataValue, 0.01, 2.1562E-05
DataValue, 0.02, 5.2574E-05
DataValue, 0.03, 9.3164E-05
DataValue, 0.04, 0.00014790000000000002
DataValue, 0.05, 0.00021764
DataValue, 0.06, 0.00030376
DataValue, 0.07, 0.0004043
DataValue, 0.08, 0.00051952
DataValue, 0.09, 0.0006433
DataValue, 0.1, 0.00076676
DataValue, 0.11000000000000001, 0.00088894000000000006
DataValue, 0.12, 0.0009982
DataValue, 0.13, 0.0010949599999999999
DataValue, 0.13999999999999999, 0.001175
DataValue, 0.15000000000000002, 0.0012424
DataValue, 0.16000000000000003, 0.0012952
DataValue, 0.17, 0.0013364
DataValue, 0.18000000000000002, 0.001367
DataValue, 0.19, 0.0013908
DataValue, 0.2, 0.0014088
DataValue, 0.21000000000000002, 0.0014234
DataValue, 0.22000000000000003, 0.0014341999999999998
DataValue, 0.22999999999999998, 0.0014432000000000002
DataValue, 0.24, 0.00145
DataValue, 0.25, 0.0014552
DataValue, 0.26, 0.0014602
DataValue, 0.27, 0.0014646
DataValue, 0.27999999999999997, 0.0014682
DataValue, 0.29, 0.001471
DataValue, 0.30000000000000004, 0.001474
DataValue, 0.31000000000000005, 0.0014762
DataValue, 0.32000000000000006, 0.0014792000000000002
DataValue, 0.33, 0.0014808
DataValue, 0.34, 0.0014834000000000002
DataValue, 0.35000000000000003, 0.0014846
DataValue, 0.36000000000000004, 0.0014866
DataValue, 0.37000000000000005, 0.0014882
DataValue, 0.38, 0.0014892000000000002
DataValue, 0.39, 0.0014912
DataValue, 0.4, 0.0014932
DataValue, 0.41, 0.0014942
DataValue, 0.42000000000000004, 0.0014954
DataValue, 0.43, 0.0014968
DataValue, 0.44000000000000006, 0.001498
DataValue, 0.45, 0.0014992
DataValue, 0.45999999999999996, 0.0015
DataValue, 0.47000000000000003, 0.0015012
DataValue, 0.48, 0.0015024
DataValue, 0.49000000000000005, 0.0015032000000000001
DataValue, 0.5, 0.0015048
DataValue, 0.51, 0.0015054
DataValue, 0.52, 0.001506
DataValue, 0.53, 0.0015069999999999999
DataValue, 0.54, 0.0015078000000000001
DataValue, 0.55, 0.001509
DataValue, 0.55999999999999994, 0.0015098000000000002
DataValue, 0.57000000000000006, 0.00151
DataValue, 0.58, 0.001511
DataValue, 0.59000000000000008, 0.001512
DataValue, 0.60000000000000009, 0.0015128
DataValue, 0.61, 0.0015128
DataValue, 0.62000000000000011, 0.0015138
DataValue, 0.63, 0.0015148
DataValue, 0.64000000000000012, 0.0015152000000000002
DataValue, 0.65, 0.0015158
DataValue, 0.66, 0.0015166
DataValue, 0.67, 0.0015172000000000002
DataValue, 0.68, 0.0015182
DataValue, 0.69000000000000006, 0.0015184
DataValue, 0.70000000000000007, 0.0015188
DataValue, 0.71, 0.0015194000000000002
DataValue, 0.72000000000000008, 0.0015198
DataValue, 0.73, 0.0015207999999999999
DataValue, 0.7400000000000001, 0.0015212000000000001
DataValue, 0.75, 0.0015212000000000001
DataValue, 0.76, 0.0015222
DataValue, 0.77, 0.0015226
DataValue, 0.78, 0.0015218
DataValue, 0.79, 0.0015228
DataValue, 0.8, 0.0015238
DataValue, 0.81, 0.0015238
DataValue, 0.82, 0.0015246
DataValue, 0.83000000000000007, 0.0015252
DataValue, 0.84000000000000008, 0.0015256
DataValue, 0.85000000000000009, 0.0015264
DataValue, 0.86, 0.0015262000000000001
DataValue, 0.87, 0.0015266
DataValue, 0.88000000000000012, 0.0015271999999999998
DataValue, 0.89000000000000012, 0.0015276
DataValue, 0.9, 0.0015284
DataValue, 0.91, 0.001528
DataValue, 0.91999999999999993, 0.0015286
DataValue, 0.93000000000000016, 0.0015287999999999999
DataValue, 0.94000000000000006, 0.0015300000000000001
DataValue, 0.95000000000000007, 0.0015298
DataValue, 0.96, 0.0015302
DataValue, 0.97, 0.0015306
DataValue, 0.98000000000000009, 0.0015308
DataValue, 0.9900000000000001, 0.0015312
DataValue, 1, 0.0015318
DataValue, 1.01, 0.0015314
DataValue, 1.02, 0.0015322
DataValue, 1.03, 0.0015322
DataValue, 1.04, 0.0015328
DataValue, 1.05, 0.0015328
DataValue, 1.06, 0.0015336000000000002
DataValue, 1.07, 0.0015332
